# Hz S RI R 50
1.500000000000e+09 -3.038792078306e-05 -2.910734783935e-04 9.987328952461e-01 -4.909545121949e-02 9.987328952461e-01 -4.909545121949e-02 -3.038792078306e-05 -2.910734783935e-04
1.526250000000e+09 -3.188857290148e-05 -2.954719769905e-04 9.986913112966e-01 -4.995340717522e-02 9.986913112966e-01 -4.995340717522e-02 -3.188857290148e-05 -2.954719769905e-04
1.552500000000e+09 -3.300525409076e-05 -2.995943042749e-04 9.986491659053e-01 -5.081195597821e-02 9.986491659053e-01 -5.081195597821e-02 -3.300525409076e-05 -2.995943042749e-04
1.578750000000e+09 -3.367956694587e-05 -3.037271764789e-04 9.986062298116e-01 -5.167098962566e-02 9.986062298116e-01 -5.167098962566e-02 -3.367956694587e-05 -3.037271764789e-04
1.605000000000e+09 -3.402668901438e-05 -3.081041578145e-04 9.985623664228e-01 -5.253034502845e-02 9.985623664228e-01 -5.253034502845e-02 -3.402668901438e-05 -3.081041578145e-04
1.631250000000e+09 -3.424609002964e-05 -3.128248213650e-04 9.985175238955e-01 -5.338985905643e-02 9.985175238955e-01 -5.338985905643e-02 -3.424609002964e-05 -3.128248213650e-04
1.657500000000e+09 -3.451494402213e-05 -3.178573605816e-04 9.984717029032e-01 -5.424939841900e-02 9.984717029032e-01 -5.424939841900e-02 -3.451494402213e-05 -3.178573605816e-04
1.683750000000e+09 -3.492419718656e-05 -3.231062184366e-04 9.984249243424e-01 -5.510885914466e-02 9.984249243424e-01 -5.510885914466e-02 -3.492419718656e-05 -3.231062184366e-04
1.710000000000e+09 -3.548452730837e-05 -3.284926468739e-04 9.983772167480e-01 -5.596814814650e-02 9.983772167480e-01 -5.596814814650e-02 -3.548452730837e-05 -3.284926468739e-04
1.736250000000e+09 -3.618465673213e-05 -3.339955871428e-04 9.983286279037e-01 -5.682716892595e-02 9.983286279037e-01 -5.682716892595e-02 -3.618465673213e-05 -3.339955871428e-04
1.762500000000e+09 -3.705398722548e-05 -3.396305877997e-04 9.982792474989e-01 -5.768582955299e-02 9.982792474989e-01 -5.768582955299e-02 -3.705398722548e-05 -3.396305877997e-04
1.788750000000e+09 -3.818197079565e-05 -3.453861590960e-04 9.982292177836e-01 -5.854407552670e-02 9.982292177836e-01 -5.854407552670e-02 -3.818197079565e-05 -3.453861590960e-04
1.815000000000e+09 -3.967623569444e-05 -3.511650832935e-04 9.981787132812e-01 -5.940193141489e-02 9.981787132812e-01 -5.940193141489e-02 -3.967623569444e-05 -3.511650832935e-04
1.841250000000e+09 -4.158188524952e-05 -3.567766304845e-04 9.981278875644e-01 -6.025952412216e-02 9.981278875644e-01 -6.025952412216e-02 -4.158188524952e-05 -3.567766304845e-04
1.867500000000e+09 -4.381159654681e-05 -3.619957460223e-04 9.980768063259e-01 -6.111706465391e-02 9.980768063259e-01 -6.111706465391e-02 -4.381159654681e-05 -3.619957460223e-04
1.893750000000e+09 -4.613423092584e-05 -3.666646212073e-04 9.980253996829e-01 -6.197478396136e-02 9.980253996829e-01 -6.197478396136e-02 -4.613423092584e-05 -3.666646212073e-04
1.920000000000e+09 -4.823946258374e-05 -3.707840782531e-04 9.979734640018e-01 -6.283284325806e-02 9.979734640018e-01 -6.283284325806e-02 -4.823946258374e-05 -3.707840782531e-04
1.946250000000e+09 -4.985421336757e-05 -3.745430310652e-04 9.979207237112e-01 -6.369125719398e-02 9.979207237112e-01 -6.369125719398e-02 -4.985421336757e-05 -3.745430310652e-04
1.972500000000e+09 -5.085658581016e-05 -3.782639395789e-04 9.978669349673e-01 -6.454986883470e-02 9.978669349673e-01 -6.454986883470e-02 -5.085658581016e-05 -3.782639395789e-04
1.998750000000e+09 -5.133117406564e-05 -3.822847984098e-04 9.978119895931e-01 -6.540839603555e-02 9.978119895931e-01 -6.540839603555e-02 -5.133117406564e-05 -3.822847984098e-04
2.025000000000e+09 -5.153729983541e-05 -3.868309627236e-04 9.977559720643e-01 -6.626653719135e-02 9.977559720643e-01 -6.626653719135e-02 -5.153729983541e-05 -3.868309627236e-04
2.051250000000e+09 -5.180421564959e-05 -3.919357002635e-04 9.976991391259e-01 -6.712409514106e-02 9.976991391259e-01 -6.712409514106e-02 -5.180421564959e-05 -3.919357002635e-04
2.077500000000e+09 -5.240233764727e-05 -3.974441603975e-04 9.976418245786e-01 -6.798106586804e-02 9.976418245786e-01 -6.798106586804e-02 -5.240233764727e-05 -3.974441603975e-04
2.103750000000e+09 -5.344925501368e-05 -4.030945961710e-04 9.975843060683e-01 -6.883765076533e-02 9.975843060683e-01 -6.883765076533e-02 -5.344925501368e-05 -4.030945961710e-04
2.130000000000e+09 -5.488954102082e-05 -4.086345855041e-04 9.975266899549e-01 -6.969418334561e-02 9.975266899549e-01 -6.969418334561e-02 -5.488954102082e-05 -4.086345855041e-04
2.156250000000e+09 -5.654963085255e-05 -4.139167766917e-04 9.974688646274e-01 -7.055099914200e-02 9.974688646274e-01 -7.055099914200e-02 -5.654963085255e-05 -4.139167766917e-04
2.182500000000e+09 -5.823341511225e-05 -4.189337222930e-04 9.974105436715e-01 -7.140830358744e-02 9.974105436715e-01 -7.140830358744e-02 -5.823341511225e-05 -4.189337222930e-04
2.208750000000e+09 -5.980868674950e-05 -4.237851023444e-04 9.973513809427e-01 -7.226609439022e-02 9.973513809427e-01 -7.226609439022e-02 -5.980868674950e-05 -4.237851023444e-04
2.235000000000e+09 -6.124556473714e-05 -4.286043645313e-04 9.972911079302e-01 -7.312417111405e-02 9.972911079302e-01 -7.312417111405e-02 -6.124556473714e-05 -4.286043645313e-04
2.261250000000e+09 -6.259757555786e-05 -4.334880719195e-04 9.972296344814e-01 -7.398222613649e-02 9.972296344814e-01 -7.398222613649e-02 -6.259757555786e-05 -4.334880719195e-04
2.287500000000e+09 -6.394700419740e-05 -4.384630725079e-04 9.971670712249e-01 -7.483997567749e-02 9.971670712249e-01 -7.483997567749e-02 -6.394700419740e-05 -4.384630725079e-04
2.313750000000e+09 -6.535173982712e-05 -4.435006242241e-04 9.971036675909e-01 -7.569727341220e-02 9.971036675909e-01 -7.569727341220e-02 -6.535173982712e-05 -4.435006242241e-04
2.340000000000e+09 -6.682398293378e-05 -4.485586738933e-04 9.970396964757e-01 -7.655415928773e-02 9.970396964757e-01 -7.655415928773e-02 -6.682398293378e-05 -4.485586738933e-04
2.366250000000e+09 -6.834761920181e-05 -4.536194479097e-04 9.969753382380e-01 -7.741082707452e-02 9.969753382380e-01 -7.741082707452e-02 -6.834761920181e-05 -4.536194479097e-04
2.392500000000e+09 -6.991561575719e-05 -4.586964183850e-04 9.969106135687e-01 -7.826753086166e-02 9.969106135687e-01 -7.826753086166e-02 -6.991561575719e-05 -4.586964183850e-04
2.418750000000e+09 -7.155658929002e-05 -4.638072653933e-04 9.968453895223e-01 -7.912447600101e-02 9.968453895223e-01 -7.912447600101e-02 -7.155658929002e-05 -4.638072653933e-04
2.445000000000e+09 -7.332759387895e-05 -4.689334858000e-04 9.967794485684e-01 -7.998174290828e-02 9.967794485684e-01 -7.998174290828e-02 -7.332759387895e-05 -4.689334858000e-04
2.471250000000e+09 -7.527307757309e-05 -4.739980909025e-04 9.967125834922e-01 -8.083927276875e-02 9.967125834922e-01 -8.083927276875e-02 -7.527307757309e-05 -4.739980909025e-04
2.497500000000e+09 -7.737393089328e-05 -4.788836085255e-04 9.966446734183e-01 -8.169691323599e-02 9.966446734183e-01 -8.169691323599e-02 -7.737393089328e-05 -4.788836085255e-04
2.523750000000e+09 -7.952091919094e-05 -4.834883713405e-04 9.965757101570e-01 -8.255449515638e-02 9.965757101570e-01 -8.255449515638e-02 -7.952091919094e-05 -4.834883713405e-04
2.550000000000e+09 -8.153657763249e-05 -4.877937976817e-04 9.965057710247e-01 -8.341190073830e-02 9.965057710247e-01 -8.341190073830e-02 -8.153657763249e-05 -4.877937976817e-04
2.576250000000e+09 -8.324367602466e-05 -4.919040804437e-04 9.964349601131e-01 -8.426909304461e-02 9.964349601131e-01 -8.426909304461e-02 -8.324367602466e-05 -4.919040804437e-04
2.602500000000e+09 -8.455073892275e-05 -4.960299465821e-04 9.963633521802e-01 -8.512609973620e-02 9.963633521802e-01 -8.512609973620e-02 -8.455073892275e-05 -4.960299465821e-04
2.628750000000e+09 -8.551149545428e-05 -5.004155760537e-04 9.962909671421e-01 -8.598296792502e-02 9.962909671421e-01 -8.598296792502e-02 -8.551149545428e-05 -5.004155760537e-04
2.655000000000e+09 -8.632405773288e-05 -5.052382183266e-04 9.962177834042e-01 -8.683971966798e-02 9.962177834042e-01 -8.683971966798e-02 -8.632405773288e-05 -5.052382183266e-04
2.681250000000e+09 -8.726358522388e-05 -5.105270953289e-04 9.961437763142e-01 -8.769633356919e-02 9.961437763142e-01 -8.769633356919e-02 -8.726358522388e-05 -5.105270953289e-04
2.707500000000e+09 -8.857525384442e-05 -5.161420223348e-04 9.960689554832e-01 -8.855276069597e-02 9.960689554832e-01 -8.855276069597e-02 -8.857525384442e-05 -5.161420223348e-04
2.733750000000e+09 -9.037540227898e-05 -5.218250425434e-04 9.959933774950e-01 -8.940896270049e-02 9.959933774950e-01 -8.940896270049e-02 -9.037540227898e-05 -5.218250425434e-04
2.760000000000e+09 -9.260652400759e-05 -5.273035679468e-04 9.959171260884e-01 -9.026494776126e-02 9.959171260884e-01 -9.026494776126e-02 -9.260652400759e-05 -5.273035679468e-04
2.786250000000e+09 -9.506692423408e-05 -5.323985881684e-04 9.958402710904e-01 -9.112078188298e-02 9.958402710904e-01 -9.112078188298e-02 -9.506692423408e-05 -5.323985881684e-04
2.812500000000e+09 -9.750061964872e-05 -5.370891068571e-04 9.957628295965e-01 -9.197656748833e-02 9.957628295965e-01 -9.197656748833e-02 -9.750061964872e-05 -5.370891068571e-04
2.838750000000e+09 -9.970500703129e-05 -5.415053063524e-04 9.956847517637e-01 -9.283239977555e-02 9.956847517637e-01 -9.283239977555e-02 -9.970500703129e-05 -5.415053063524e-04
2.865000000000e+09 -1.016068189399e-04 -5.458572160062e-04 9.956059401475e-01 -9.368832379849e-02 9.956059401475e-01 -9.368832379849e-02 -1.016068189399e-04 -5.458572160062e-04
2.891250000000e+09 -1.032739999409e-04 -5.503356739246e-04 9.955262933641e-01 -9.454431506464e-02 9.955262933641e-01 -9.454431506464e-02 -1.032739999409e-04 -5.503356739246e-04
2.917500000000e+09 -1.048632687825e-04 -5.550334035427e-04 9.954457518601e-01 -9.540029403284e-02 9.954457518601e-01 -9.540029403284e-02 -1.048632687825e-04 -5.550334035427e-04
2.943750000000e+09 -1.065338626131e-04 -5.599212619427e-04 9.953643225288e-01 -9.625616712405e-02 9.953643225288e-01 -9.625616712405e-02 -1.065338626131e-04 -5.599212619427e-04
2.970000000000e+09 -1.083720811210e-04 -5.648854548431e-04 9.952820700919e-01 -9.711187326286e-02 9.952820700919e-01 -9.711187326286e-02 -1.083720811210e-04 -5.648854548431e-04
2.996250000000e+09 -1.103624618302e-04 -5.698011065098e-04 9.951990803650e-01 -9.796741256503e-02 9.951990803650e-01 -9.796741256503e-02 -1.103624618302e-04 -5.698011065098e-04
3.022500000000e+09 -1.124152498952e-04 -5.746013530225e-04 9.951154146092e-01 -9.882284348654e-02 9.951154146092e-01 -9.882284348654e-02 -1.124152498952e-04 -5.746013530225e-04
3.048750000000e+09 -1.144303970686e-04 -5.793065861671e-04 9.950310779463e-01 -9.967825110084e-02 9.950310779463e-01 -9.967825110084e-02 -1.144303970686e-04 -5.793065861671e-04
3.075000000000e+09 -1.163608092633e-04 -5.840017256695e-04 9.949460167654e-01 -1.005337034769e-01 9.949460167654e-01 -1.005337034769e-01 -1.163608092633e-04 -5.840017256695e-04
3.101250000000e+09 -1.182403689435e-04 -5.887776038590e-04 9.948601448497e-01 -1.013892181444e-01 9.948601448497e-01 -1.013892181444e-01 -1.182403689435e-04 -5.887776038590e-04
3.127500000000e+09 -1.201629693183e-04 -5.936708730302e-04 9.947733837750e-01 -1.022447542797e-01 9.947733837750e-01 -1.022447542797e-01 -1.201629693183e-04 -5.936708730302e-04
3.153750000000e+09 -1.222258341824e-04 -5.986361845065e-04 9.946856971609e-01 -1.031002324610e-01 9.946856971609e-01 -1.031002324610e-01 -1.222258341824e-04 -5.986361845065e-04
3.180000000000e+09 -1.244693599829e-04 -6.035658527554e-04 9.945971030979e-01 -1.039555701790e-01 9.945971030979e-01 -1.039555701790e-01 -1.244693599829e-04 -6.035658527554e-04
3.206250000000e+09 -1.268469524007e-04 -6.083461818715e-04 9.945076612924e-01 -1.048107147575e-01 9.945076612924e-01 -1.048107147575e-01 -1.268469524007e-04 -6.083461818715e-04
3.232500000000e+09 -1.292417695209e-04 -6.129200074766e-04 9.944174442396e-01 -1.056656587195e-01 9.944174442396e-01 -1.056656587195e-01 -1.292417695209e-04 -6.129200074766e-04
3.258750000000e+09 -1.315221369589e-04 -6.173218925292e-04 9.943265083571e-01 -1.065204332715e-01 9.943265083571e-01 -1.065204332715e-01 -1.315221369589e-04 -6.173218925292e-04
3.285000000000e+09 -1.336070469755e-04 -6.216669846550e-04 9.942348785893e-01 -1.073750871658e-01 9.942348785893e-01 -1.073750871658e-01 -1.336070469755e-04 -6.216669846550e-04
3.311250000000e+09 -1.355080592251e-04 -6.260987456238e-04 9.941425507602e-01 -1.082296644238e-01 9.941425507602e-01 -1.082296644238e-01 -1.355080592251e-04 -6.260987456238e-04
3.337500000000e+09 -1.373263169475e-04 -6.307218143697e-04 9.940495056741e-01 -1.090841924166e-01 9.940495056741e-01 -1.090841924166e-01 -1.373263169475e-04 -6.307218143697e-04
3.363750000000e+09 -1.392064094342e-04 -6.355534162932e-04 9.939557235557e-01 -1.099386835861e-01 9.939557235557e-01 -1.099386835861e-01 -1.392064094342e-04 -6.355534162932e-04
3.390000000000e+09 -1.412703481115e-04 -6.405167461369e-04 9.938611895459e-01 -1.107931450349e-01 9.938611895459e-01 -1.107931450349e-01 -1.412703481115e-04 -6.405167461369e-04
3.416250000000e+09 -1.435640684101e-04 -6.454782909101e-04 9.937658887086e-01 -1.116475858619e-01 9.937658887086e-01 -1.116475858619e-01 -1.435640684101e-04 -6.454782909101e-04
3.442500000000e+09 -1.460414617231e-04 -6.503094285478e-04 9.936697971628e-01 -1.125020149000e-01 9.936697971628e-01 -1.125020149000e-01 -1.460414617231e-04 -6.503094285478e-04
3.468750000000e+09 -1.485914250446e-04 -6.549417577702e-04 9.935728792444e-01 -1.133564293954e-01 9.935728792444e-01 -1.133564293954e-01 -1.485914250446e-04 -6.549417577702e-04
3.495000000000e+09 -1.510921882034e-04 -6.593904466902e-04 9.934750968190e-01 -1.142108029557e-01 9.934750968190e-01 -1.142108029557e-01 -1.510921882034e-04 -6.593904466902e-04
3.521250000000e+09 -1.534649974477e-04 -6.637371740626e-04 9.933764282643e-01 -1.150650835656e-01 9.933764282643e-01 -1.150650835656e-01 -1.534649974477e-04 -6.637371740626e-04
3.547500000000e+09 -1.557016989746e-04 -6.680845692954e-04 9.932768866021e-01 -1.159192075806e-01 9.932768866021e-01 -1.159192075806e-01 -1.557016989746e-04 -6.680845692954e-04
3.573750000000e+09 -1.578557205934e-04 -6.725070078208e-04 9.931765241495e-01 -1.167731258456e-01 9.931765241495e-01 -1.167731258456e-01 -1.578557205934e-04 -6.725070078208e-04
3.600000000000e+09 -1.600050070545e-04 -6.770221366356e-04 9.930754169271e-01 -1.176268291972e-01 9.930754169271e-01 -1.176268291972e-01 -1.600050070545e-04 -6.770221366356e-04
3.626250000000e+09 -1.622086633691e-04 -6.815947770643e-04 9.929736331927e-01 -1.184803582930e-01 9.929736331927e-01 -1.184803582930e-01 -1.622086633691e-04 -6.815947770643e-04
3.652500000000e+09 -1.644800862474e-04 -6.861672683592e-04 9.928712007121e-01 -1.193337892092e-01 9.928712007121e-01 -1.193337892092e-01 -1.644800862474e-04 -6.861672683592e-04
3.678750000000e+09 -1.667885934516e-04 -6.906972811495e-04 9.927680904846e-01 -1.201871987652e-01 9.927680904846e-01 -1.201871987652e-01 -1.667885934516e-04 -6.906972811495e-04
3.705000000000e+09 -1.690854597376e-04 -6.951820612340e-04 9.926642279710e-01 -1.210406254523e-01 9.926642279710e-01 -1.210406254523e-01 -1.690854597376e-04 -6.951820612340e-04
3.731250000000e+09 -1.713376484478e-04 -6.996572304304e-04 9.925595291536e-01 -1.218940462795e-01 9.925595291536e-01 -1.218940462795e-01 -1.713376484478e-04 -6.996572304304e-04
3.757500000000e+09 -1.735497906865e-04 -7.041730270504e-04 9.924539449880e-01 -1.227473835179e-01 9.924539449880e-01 -1.227473835179e-01 -1.735497906865e-04 -7.041730270504e-04
3.783750000000e+09 -1.757628764229e-04 -7.087629817474e-04 9.923474916168e-01 -1.236005407108e-01 9.923474916168e-01 -1.236005407108e-01 -1.757628764229e-04 -7.087629817474e-04
3.810000000000e+09 -1.780317419333e-04 -7.134231819246e-04 9.922402491916e-01 -1.244534516744e-01 9.922402491916e-01 -1.244534516744e-01 -1.780317419333e-04 -7.134231819246e-04
3.836250000000e+09 -1.803950671618e-04 -7.181133328430e-04 9.921323272764e-01 -1.253061179533e-01 9.921323272764e-01 -1.253061179533e-01 -1.803950671618e-04 -7.181133328430e-04
3.862500000000e+09 -1.828550420877e-04 -7.227781256273e-04 9.920238122212e-01 -1.261586143227e-01 9.920238122212e-01 -1.261586143227e-01 -1.828550420877e-04 -7.227781256273e-04
3.888750000000e+09 -1.853776809752e-04 -7.273761981378e-04 9.919147224513e-01 -1.270110571509e-01 9.919147224513e-01 -1.270110571509e-01 -1.853776809752e-04 -7.273761981378e-04
3.915000000000e+09 -1.879128073909e-04 -7.319002933904e-04 9.918049952651e-01 -1.278635494162e-01 9.918049952651e-01 -1.278635494162e-01 -1.879128073909e-04 -7.319002933904e-04
3.941250000000e+09 -1.904218193463e-04 -7.363777685315e-04 9.916945138921e-01 -1.287161291589e-01 9.916945138921e-01 -1.287161291589e-01 -1.904218193463e-04 -7.363777685315e-04
3.967500000000e+09 -1.928974364846e-04 -7.408519641234e-04 9.915831632730e-01 -1.295687479587e-01 9.915831632730e-01 -1.295687479587e-01 -1.928974364846e-04 -7.408519641234e-04
3.993750000000e+09 -1.953646359499e-04 -7.453556402321e-04 9.914708875806e-01 -1.304212920297e-01 9.914708875806e-01 -1.304212920297e-01 -1.953646359499e-04 -7.453556402321e-04
4.020000000000e+09 -1.978628595852e-04 -7.498918351567e-04 9.913577201971e-01 -1.312736372683e-01 9.913577201971e-01 -1.312736372683e-01 -1.978628595852e-04 -7.498918351567e-04
4.046250000000e+09 -2.004201532954e-04 -7.544329840785e-04 9.912437695465e-01 -1.321257117323e-01 9.912437695465e-01 -1.321257117323e-01 -2.004201532954e-04 -7.544329840785e-04
4.072500000000e+09 -2.030343355440e-04 -7.589386379598e-04 9.911291660235e-01 -1.329775339574e-01 9.911291660235e-01 -1.329775339574e-01 -2.030343355440e-04 -7.589386379598e-04
4.098750000000e+09 -2.056722409532e-04 -7.633815539280e-04 9.910139954087e-01 -1.338292064365e-01 9.910139954087e-01 -1.338292064365e-01 -2.056722409532e-04 -7.633815539280e-04
4.125000000000e+09 -2.082878924780e-04 -7.677671196824e-04 9.908982522092e-01 -1.346808655662e-01 9.908982522092e-01 -1.346808655662e-01 -2.082878924780e-04 -7.677671196824e-04
4.151250000000e+09 -2.108497835416e-04 -7.721346188295e-04 9.907818376800e-01 -1.355326116212e-01 9.907818376800e-01 -1.355326116212e-01 -2.108497835416e-04 -7.721346188295e-04
4.177500000000e+09 -2.133621452448e-04 -7.765387528795e-04 9.906646056383e-01 -1.363844535061e-01 9.906646056383e-01 -1.363844535061e-01 -2.133621452448e-04 -7.765387528795e-04
4.203750000000e+09 -2.158680031570e-04 -7.810206952491e-04 9.905464350978e-01 -1.372362970307e-01 9.905464350978e-01 -1.372362970307e-01 -2.158680031570e-04 -7.810206952491e-04
4.230000000000e+09 -2.184313933765e-04 -7.855838937986e-04 9.904272943310e-01 -1.380879847066e-01 9.904272943310e-01 -1.380879847066e-01 -2.184313933765e-04 -7.855838937986e-04
4.256250000000e+09 -2.211071689634e-04 -7.901876880362e-04 9.903072638381e-01 -1.389393695124e-01 9.903072638381e-01 -1.389393695124e-01 -2.211071689634e-04 -7.901876880362e-04
4.282500000000e+09 -2.239135054423e-04 -7.947627355814e-04 9.901865049580e-01 -1.397903874397e-01 9.901865049580e-01 -1.397903874397e-01 -2.239135054423e-04 -7.947627355814e-04
4.308750000000e+09 -2.268210205671e-04 -7.992410673546e-04 9.900651873551e-01 -1.406410929676e-01 9.900651873551e-01 -1.406410929676e-01 -2.268210205671e-04 -7.992410673546e-04
4.335000000000e+09 -2.297640616677e-04 -8.035861626463e-04 9.899434093243e-01 -1.414916387131e-01 9.899434093243e-01 -1.414916387131e-01 -2.297640616677e-04 -8.035861626463e-04
4.361250000000e+09 -2.326686175000e-04 -8.078085395562e-04 9.898211493692e-01 -1.423422073092e-01 9.898211493692e-01 -1.423422073092e-01 -2.326686175000e-04 -8.078085395562e-04
4.387500000000e+09 -2.354832357153e-04 -8.119597821306e-04 9.896982732284e-01 -1.431929270254e-01 9.896982732284e-01 -1.431929270254e-01 -2.354832357153e-04 -8.119597821306e-04
4.413750000000e+09 -2.381983114797e-04 -8.161086828154e-04 9.895745941750e-01 -1.440438111432e-01 9.895745941750e-01 -1.440438111432e-01 -2.381983114797e-04 -8.161086828154e-04
