# Hz S RI R 50
3.000000000000e+09 -3.013508779933e-03 -2.638995407938e-02 9.963120020467e-01 -4.372990935461e-02 9.963120020467e-01 -4.372990935461e-02 -3.013508779933e-03 -2.638995407938e-02
3.015000000000e+09 -3.003359303248e-03 -2.646846987571e-02 9.963391778881e-01 -4.385999997684e-02 9.963391778881e-01 -4.385999997684e-02 -3.003359303248e-03 -2.646846987571e-02
3.030000000000e+09 -2.992410010546e-03 -2.654902022298e-02 9.963678103261e-01 -4.399340059383e-02 9.963678103261e-01 -4.399340059383e-02 -2.992410010546e-03 -2.654902022298e-02
3.045000000000e+09 -2.980744159788e-03 -2.663157124875e-02 9.963977617080e-01 -4.413005875158e-02 9.963977617080e-01 -4.413005875158e-02 -2.980744159788e-03 -2.663157124875e-02
3.060000000000e+09 -2.968441393630e-03 -2.671608771780e-02 9.964289002499e-01 -4.426991965569e-02 9.964289002499e-01 -4.426991965569e-02 -2.968441393630e-03 -2.671608771780e-02
3.075000000000e+09 -2.955577820439e-03 -2.680253320286e-02 9.964610999099e-01 -4.441292645272e-02 9.964610999099e-01 -4.441292645272e-02 -2.955577820439e-03 -2.680253320286e-02
3.090000000000e+09 -2.942226098908e-03 -2.689087024519e-02 9.964942402550e-01 -4.455902049479e-02 9.964942402550e-01 -4.455902049479e-02 -2.942226098908e-03 -2.689087024519e-02
3.105000000000e+09 -2.928455525646e-03 -2.698106050515e-02 9.965282063230e-01 -4.470814158822e-02 9.965282063230e-01 -4.470814158822e-02 -2.928455525646e-03 -2.698106050515e-02
3.120000000000e+09 -2.914332125114e-03 -2.707306490326e-02 9.965628884801e-01 -4.486022822644e-02 9.965628884801e-01 -4.486022822644e-02 -2.914332125114e-03 -2.707306490326e-02
3.135000000000e+09 -2.899918741363e-03 -2.716684375187e-02 9.965981822752e-01 -4.501521780794e-02 9.965981822752e-01 -4.501521780794e-02 -2.899918741363e-03 -2.716684375187e-02
3.150000000000e+09 -2.885275131099e-03 -2.726235687801e-02 9.966339882918e-01 -4.517304683959e-02 9.966339882918e-01 -4.517304683959e-02 -2.885275131099e-03 -2.726235687801e-02
3.165000000000e+09 -2.870458057575e-03 -2.735956373771e-02 9.966702119986e-01 -4.533365112612e-02 9.966702119986e-01 -4.533365112612e-02 -2.870458057575e-03 -2.735956373771e-02
3.180000000000e+09 -2.855521384926e-03 -2.745842352203e-02 9.967067635983e-01 -4.549696594618e-02 9.967067635983e-01 -4.549696594618e-02 -2.855521384926e-03 -2.745842352203e-02
3.195000000000e+09 -2.840516172558e-03 -2.755889525536e-02 9.967435578773e-01 -4.566292621571e-02 9.967435578773e-01 -4.566292621571e-02 -2.840516172558e-03 -2.755889525536e-02
3.210000000000e+09 -2.825490769257e-03 -2.766093788617e-02 9.967805140542e-01 -4.583146663900e-02 9.967805140542e-01 -4.583146663900e-02 -2.825490769257e-03 -2.766093788617e-02
3.225000000000e+09 -2.810490906720e-03 -2.776451037082e-02 9.968175556299e-01 -4.600252184828e-02 9.968175556299e-01 -4.600252184828e-02 -2.810490906720e-03 -2.776451037082e-02
3.240000000000e+09 -2.795559792230e-03 -2.786957175040e-02 9.968546102389e-01 -4.617602653216e-02 9.968546102389e-01 -4.617602653216e-02 -2.795559792230e-03 -2.786957175040e-02
3.255000000000e+09 -2.780738200258e-03 -2.797608122142e-02 9.968916095017e-01 -4.635191555369e-02 9.968916095017e-01 -4.635191555369e-02 -2.780738200258e-03 -2.797608122142e-02
3.270000000000e+09 -2.766064562761e-03 -2.808399820028e-02 9.969284888796e-01 -4.653012405846e-02 9.969284888796e-01 -4.653012405846e-02 -2.766064562761e-03 -2.808399820028e-02
3.285000000000e+09 -2.751575058015e-03 -2.819328238211e-02 9.969651875311e-01 -4.671058757341e-02 9.969651875311e-01 -4.671058757341e-02 -2.751575058015e-03 -2.819328238211e-02
3.300000000000e+09 -2.737303697814e-03 -2.830389379422e-02 9.970016481714e-01 -4.689324209665e-02 9.970016481714e-01 -4.689324209665e-02 -2.737303697814e-03 -2.830389379422e-02
3.315000000000e+09 -2.723282412913e-03 -2.841579284448e-02 9.970378169342e-01 -4.707802417914e-02 9.970378169342e-01 -4.707802417914e-02 -2.723282412913e-03 -2.841579284448e-02
3.330000000000e+09 -2.709541136584e-03 -2.852894036489e-02 9.970736432369e-01 -4.726487099841e-02 9.970736432369e-01 -4.726487099841e-02 -2.709541136584e-03 -2.852894036489e-02
3.345000000000e+09 -2.696107886222e-03 -2.864329765078e-02 9.971090796481e-01 -4.745372042492e-02 9.971090796481e-01 -4.745372042492e-02 -2.696107886222e-03 -2.864329765078e-02
3.360000000000e+09 -2.683008842899e-03 -2.875882649571e-02 9.971440817592e-01 -4.764451108160e-02 9.971440817592e-01 -4.764451108160e-02 -2.683008842899e-03 -2.875882649571e-02
3.375000000000e+09 -2.670268428815e-03 -2.887548922255e-02 9.971786080582e-01 -4.783718239689e-02 9.971786080582e-01 -4.783718239689e-02 -2.670268428815e-03 -2.887548922255e-02
3.390000000000e+09 -2.657909382610e-03 -2.899324871083e-02 9.972126198081e-01 -4.803167465169e-02 9.972126198081e-01 -4.803167465169e-02 -2.657909382610e-03 -2.899324871083e-02
3.405000000000e+09 -2.645952832487e-03 -2.911206842072e-02 9.972460809281e-01 -4.822792902080e-02 9.972460809281e-01 -4.822792902080e-02 -2.645952832487e-03 -2.911206842072e-02
3.420000000000e+09 -2.634418367151e-03 -2.923191241380e-02 9.972789578779e-01 -4.842588760897e-02 9.972789578779e-01 -4.842588760897e-02 -2.634418367151e-03 -2.923191241380e-02
3.435000000000e+09 -2.623324104521e-03 -2.935274537096e-02 9.973112195464e-01 -4.862549348216e-02 9.973112195464e-01 -4.862549348216e-02 -2.623324104521e-03 -2.935274537096e-02
3.450000000000e+09 -2.612686758255e-03 -2.947453260745e-02 9.973428371435e-01 -4.882669069424e-02 9.973428371435e-01 -4.882669069424e-02 -2.612686758255e-03 -2.947453260745e-02
3.465000000000e+09 -2.602521702048e-03 -2.959724008546e-02 9.973737840949e-01 -4.902942430946e-02 9.973737840949e-01 -4.902942430946e-02 -2.602521702048e-03 -2.959724008546e-02
3.480000000000e+09 -2.592843031771e-03 -2.972083442436e-02 9.974040359416e-01 -4.923364042106e-02 9.974040359416e-01 -4.923364042106e-02 -2.592843031771e-03 -2.972083442436e-02
3.495000000000e+09 -2.583663625429e-03 -2.984528290875e-02 9.974335702413e-01 -4.943928616625e-02 9.974335702413e-01 -4.943928616625e-02 -2.583663625429e-03 -2.984528290875e-02
3.510000000000e+09 -2.574995200991e-03 -2.997055349453e-02 9.974623664750e-01 -4.964630973787e-02 9.974623664750e-01 -4.964630973787e-02 -2.574995200991e-03 -2.997055349453e-02
3.525000000000e+09 -2.566848372109e-03 -3.009661481312e-02 9.974904059551e-01 -4.985466039306e-02 9.974904059551e-01 -4.985466039306e-02 -2.566848372109e-03 -3.009661481312e-02
3.540000000000e+09 -2.559232701780e-03 -3.022343617400e-02 9.975176717386e-01 -5.006428845897e-02 9.975176717386e-01 -5.006428845897e-02 -2.559232701780e-03 -3.022343617400e-02
3.555000000000e+09 -2.552156753973e-03 -3.035098756575e-02 9.975441485421e-01 -5.027514533610e-02 9.975441485421e-01 -5.027514533610e-02 -2.552156753973e-03 -3.035098756575e-02
3.570000000000e+09 -2.545628143270e-03 -3.047923965563e-02 9.975698226610e-01 -5.048718349906e-02 9.975698226610e-01 -5.048718349906e-02 -2.545628143270e-03 -3.047923965563e-02
3.585000000000e+09 -2.539653582581e-03 -3.060816378788e-02 9.975946818911e-01 -5.070035649540e-02 9.975946818911e-01 -5.070035649540e-02 -2.539653582581e-03 -3.060816378788e-02
3.600000000000e+09 -2.534238928954e-03 -3.073773198090e-02 9.976187154540e-01 -5.091461894228e-02 9.976187154540e-01 -5.091461894228e-02 -2.534238928954e-03 -3.073773198090e-02
3.615000000000e+09 -2.529389227556e-03 -3.086791692333e-02 9.976419139245e-01 -5.112992652150e-02 9.976419139245e-01 -5.112992652150e-02 -2.529389227556e-03 -3.086791692333e-02
3.630000000000e+09 -2.525108753844e-03 -3.099869196921e-02 9.976642691622e-01 -5.134623597285e-02 9.976642691622e-01 -5.134623597285e-02 -2.525108753844e-03 -3.099869196921e-02
3.645000000000e+09 -2.521401054023e-03 -3.113003113222e-02 9.976857742444e-01 -5.156350508604e-02 9.976857742444e-01 -5.156350508604e-02 -2.521401054023e-03 -3.113003113222e-02
3.660000000000e+09 -2.518268983796e-03 -3.126190907925e-02 9.977064234030e-01 -5.178169269130e-02 9.977064234030e-01 -5.178169269130e-02 -2.518268983796e-03 -3.126190907925e-02
3.675000000000e+09 -2.515714745481e-03 -3.139430112316e-02 9.977262119634e-01 -5.200075864881e-02 9.977262119634e-01 -5.200075864881e-02 -2.515714745481e-03 -3.139430112316e-02
3.690000000000e+09 -2.513739923553e-03 -3.152718321507e-02 9.977451362861e-01 -5.222066383710e-02 9.977451362861e-01 -5.222066383710e-02 -2.513739923553e-03 -3.152718321507e-02
3.705000000000e+09 -2.512345518644e-03 -3.166053193596e-02 9.977631937108e-01 -5.244137014054e-02 9.977631937108e-01 -5.244137014054e-02 -2.512345518644e-03 -3.166053193596e-02
3.720000000000e+09 -2.511531980072e-03 -3.179432448792e-02 9.977803825028e-01 -5.266284043597e-02 9.977803825028e-01 -5.266284043597e-02 -2.511531980072e-03 -3.179432448792e-02
3.735000000000e+09 -2.511299236934e-03 -3.192853868493e-02 9.977967018020e-01 -5.288503857862e-02 9.977967018020e-01 -5.288503857862e-02 -2.511299236934e-03 -3.192853868493e-02
3.750000000000e+09 -2.511646727824e-03 -3.206315294328e-02 9.978121515739e-01 -5.310792938745e-02 9.978121515739e-01 -5.310792938745e-02 -2.511646727824e-03 -3.206315294328e-02
3.765000000000e+09 -2.512573429230e-03 -3.219814627172e-02 9.978267325629e-01 -5.333147862995e-02 9.978267325629e-01 -5.333147862995e-02 -2.512573429230e-03 -3.219814627172e-02
3.780000000000e+09 -2.514077882633e-03 -3.233349826130e-02 9.978404462472e-01 -5.355565300642e-02 9.978404462472e-01 -5.355565300642e-02 -2.514077882633e-03 -3.233349826130e-02
3.795000000000e+09 -2.516158220395e-03 -3.246918907511e-02 9.978532947966e-01 -5.378042013395e-02 9.978532947966e-01 -5.378042013395e-02 -2.516158220395e-03 -3.246918907511e-02
3.810000000000e+09 -2.518812190448e-03 -3.260519943766e-02 9.978652810315e-01 -5.400574853003e-02 9.978652810315e-01 -5.400574853003e-02 -2.518812190448e-03 -3.260519943766e-02
3.825000000000e+09 -2.522037179853e-03 -3.274151062436e-02 9.978764083841e-01 -5.423160759598e-02 9.978764083841e-01 -5.423160759598e-02 -2.522037179853e-03 -3.274151062436e-02
3.840000000000e+09 -2.525830237259e-03 -3.287810445069e-02 9.978866808611e-01 -5.445796760006e-02 9.978866808611e-01 -5.445796760006e-02 -2.525830237259e-03 -3.287810445069e-02
3.855000000000e+09 -2.530188094313e-03 -3.301496326145e-02 9.978961030084e-01 -5.468479966062e-02 9.978961030084e-01 -5.468479966062e-02 -2.530188094313e-03 -3.301496326145e-02
3.870000000000e+09 -2.535107186066e-03 -3.315206991989e-02 9.979046798775e-01 -5.491207572897e-02 9.979046798775e-01 -5.491207572897e-02 -2.535107186066e-03 -3.315206991989e-02
3.885000000000e+09 -2.540583670402e-03 -3.328940779687e-02 9.979124169928e-01 -5.513976857233e-02 9.979124169928e-01 -5.513976857233e-02 -2.540583670402e-03 -3.328940779687e-02
3.900000000000e+09 -2.546613446550e-03 -3.342696076002e-02 9.979193203217e-01 -5.536785175676e-02 9.979193203217e-01 -5.536785175676e-02 -2.546613446550e-03 -3.342696076002e-02
3.915000000000e+09 -2.553192172702e-03 -3.356471316289e-02 9.979253962447e-01 -5.559629963001e-02 9.979253962447e-01 -5.559629963001e-02 -2.553192172702e-03 -3.356471316289e-02
3.930000000000e+09 -2.560315282778e-03 -3.370264983422e-02 9.979306515279e-01 -5.582508730457e-02 9.979306515279e-01 -5.582508730457e-02 -2.560315282778e-03 -3.370264983422e-02
3.945000000000e+09 -2.567978002375e-03 -3.384075606727e-02 9.979350932965e-01 -5.605419064072e-02 9.979350932965e-01 -5.605419064072e-02 -2.567978002375e-03 -3.384075606727e-02
3.960000000000e+09 -2.576175363944e-03 -3.397901760915e-02 9.979387290096e-01 -5.628358622975e-02 9.979387290096e-01 -5.628358622975e-02 -2.576175363944e-03 -3.397901760915e-02
3.975000000000e+09 -2.584902221206e-03 -3.411742065036e-02 9.979415664362e-01 -5.651325137724e-02 9.979415664362e-01 -5.651325137724e-02 -2.584902221206e-03 -3.411742065036e-02
3.990000000000e+09 -2.594153262867e-03 -3.425595181441e-02 9.979436136323e-01 -5.674316408660e-02 9.979436136323e-01 -5.674316408660e-02 -2.594153262867e-03 -3.425595181441e-02
4.005000000000e+09 -2.603923025637e-03 -3.439459814747e-02 9.979448789194e-01 -5.697330304274e-02 9.979448789194e-01 -5.697330304274e-02 -2.603923025637e-03 -3.439459814747e-02
4.020000000000e+09 -2.614205906608e-03 -3.453334710832e-02 9.979453708637e-01 -5.720364759591e-02 9.979453708637e-01 -5.720364759591e-02 -2.614205906608e-03 -3.453334710832e-02
4.035000000000e+09 -2.624996174997e-03 -3.467218655828e-02 9.979450982567e-01 -5.743417774583e-02 9.979450982567e-01 -5.743417774583e-02 -2.624996174997e-03 -3.467218655828e-02
4.050000000000e+09 -2.636287983296e-03 -3.481110475140e-02 9.979440700964e-01 -5.766487412596e-02 9.979440700964e-01 -5.766487412596e-02 -2.636287983296e-03 -3.481110475140e-02
4.065000000000e+09 -2.648075377859e-03 -3.495009032475e-02 9.979422955698e-01 -5.789571798806e-02 9.979422955698e-01 -5.789571798806e-02 -2.648075377859e-03 -3.495009032475e-02
4.080000000000e+09 -2.660352308935e-03 -3.508913228887e-02 9.979397840362e-01 -5.812669118699e-02 9.979397840362e-01 -5.812669118699e-02 -2.660352308935e-03 -3.508913228887e-02
4.095000000000e+09 -2.673112640186e-03 -3.522822001842e-02 9.979365450107e-01 -5.835777616575e-02 9.979365450107e-01 -5.835777616575e-02 -2.673112640186e-03 -3.522822001842e-02
4.110000000000e+09 -2.686350157708e-03 -3.536734324298e-02 9.979325881501e-01 -5.858895594079e-02 9.979325881501e-01 -5.858895594079e-02 -2.686350157708e-03 -3.536734324298e-02
4.125000000000e+09 -2.700058578584e-03 -3.550649203800e-02 9.979279232375e-01 -5.882021408757e-02 9.979279232375e-01 -5.882021408757e-02 -2.700058578584e-03 -3.550649203800e-02
4.140000000000e+09 -2.714231558977e-03 -3.564565681595e-02 9.979225601698e-01 -5.905153472645e-02 9.979225601698e-01 -5.905153472645e-02 -2.714231558977e-03 -3.564565681595e-02
4.155000000000e+09 -2.728862701802e-03 -3.578482831766e-02 9.979165089437e-01 -5.928290250877e-02 9.979165089437e-01 -5.928290250877e-02 -2.728862701802e-03 -3.578482831766e-02
4.170000000000e+09 -2.743945563981e-03 -3.592399760380e-02 9.979097796445e-01 -5.951430260327e-02 9.979097796445e-01 -5.951430260327e-02 -2.743945563981e-03 -3.592399760380e-02
4.185000000000e+09 -2.759473663308e-03 -3.606315604656e-02 9.979023824341e-01 -5.974572068278e-02 9.979023824341e-01 -5.974572068278e-02 -2.759473663308e-03 -3.606315604656e-02
4.200000000000e+09 -2.775440484947e-03 -3.620229532151e-02 9.978943275398e-01 -5.997714291118e-02 9.978943275398e-01 -5.997714291118e-02 -2.775440484947e-03 -3.620229532151e-02
4.215000000000e+09 -2.791839487565e-03 -3.634140739967e-02 9.978856252448e-01 -6.020855593064e-02 9.978856252448e-01 -6.020855593064e-02 -2.791839487565e-03 -3.634140739967e-02
4.230000000000e+09 -2.808664109133e-03 -3.648048453965e-02 9.978762858774e-01 -6.043994684916e-02 9.978762858774e-01 -6.043994684916e-02 -2.808664109133e-03 -3.648048453965e-02
4.245000000000e+09 -2.825907772408e-03 -3.661951928010e-02 9.978663198026e-01 -6.067130322835e-02 9.978663198026e-01 -6.067130322835e-02 -2.825907772408e-03 -3.661951928010e-02
4.260000000000e+09 -2.843563890098e-03 -3.675850443227e-02 9.978557374130e-01 -6.090261307157e-02 9.978557374130e-01 -6.090261307157e-02 -2.843563890098e-03 -3.675850443227e-02
4.275000000000e+09 -2.861625869741e-03 -3.689743307275e-02 9.978445491203e-01 -6.113386481224e-02 9.978445491203e-01 -6.113386481224e-02 -2.861625869741e-03 -3.689743307275e-02
4.290000000000e+09 -2.880087118308e-03 -3.703629853637e-02 9.978327653482e-01 -6.136504730251e-02 9.978327653482e-01 -6.136504730251e-02 -2.880087118308e-03 -3.703629853637e-02
4.305000000000e+09 -2.898941046532e-03 -3.717509440931e-02 9.978203965242e-01 -6.159614980218e-02 9.978203965242e-01 -6.159614980218e-02 -2.898941046532e-03 -3.717509440931e-02
4.320000000000e+09 -2.918181072999e-03 -3.731381452237e-02 9.978074530735e-01 -6.182716196786e-02 9.978074530735e-01 -6.182716196786e-02 -2.918181072999e-03 -3.731381452237e-02
4.335000000000e+09 -2.937800627985e-03 -3.745245294437e-02 9.977939454118e-01 -6.205807384246e-02 9.977939454118e-01 -6.205807384246e-02 -2.937800627985e-03 -3.745245294437e-02
4.350000000000e+09 -2.957793157071e-03 -3.759100397576e-02 9.977798839397e-01 -6.228887584484e-02 9.977798839397e-01 -6.228887584484e-02 -2.957793157071e-03 -3.759100397576e-02
4.365000000000e+09 -2.978152124546e-03 -3.772946214235e-02 9.977652790363e-01 -6.251955875984e-02 9.977652790363e-01 -6.251955875984e-02 -2.978152124546e-03 -3.772946214235e-02
4.380000000000e+09 -2.998871016593e-03 -3.786782218928e-02 9.977501410544e-01 -6.275011372848e-02 9.977501410544e-01 -6.275011372848e-02 -2.998871016593e-03 -3.786782218928e-02
4.395000000000e+09 -3.019943344288e-03 -3.800607907503e-02 9.977344803148e-01 -6.298053223847e-02 9.977344803148e-01 -6.298053223847e-02 -3.019943344288e-03 -3.800607907503e-02
4.410000000000e+09 -3.041362646408e-03 -3.814422796570e-02 9.977183071020e-01 -6.321080611488e-02 9.977183071020e-01 -6.321080611488e-02 -3.041362646408e-03 -3.814422796570e-02
4.425000000000e+09 -3.063122492063e-03 -3.828226422934e-02 9.977016316594e-01 -6.344092751116e-02 9.977016316594e-01 -6.344092751116e-02 -3.063122492063e-03 -3.828226422934e-02
4.440000000000e+09 -3.085216483162e-03 -3.842018343054e-02 9.976844641850e-01 -6.367088890033e-02 9.976844641850e-01 -6.367088890033e-02 -3.085216483162e-03 -3.842018343054e-02
4.455000000000e+09 -3.107638256710e-03 -3.855798132505e-02 9.976668148276e-01 -6.390068306643e-02 9.976668148276e-01 -6.390068306643e-02 -3.107638256710e-03 -3.855798132505e-02
4.470000000000e+09 -3.130381486968e-03 -3.869565385461e-02 9.976486936832e-01 -6.413030309616e-02 9.976486936832e-01 -6.413030309616e-02 -3.130381486968e-03 -3.869565385461e-02
4.485000000000e+09 -3.153439887454e-03 -3.883319714197e-02 9.976301107912e-01 -6.435974237083e-02 9.976301107912e-01 -6.435974237083e-02 -3.153439887454e-03 -3.883319714197e-02
4.500000000000e+09 -3.176807212821e-03 -3.897060748587e-02 9.976110761314e-01 -6.458899455841e-02 9.976110761314e-01 -6.458899455841e-02 -3.176807212821e-03 -3.897060748587e-02
4.515000000000e+09 -3.200477260587e-03 -3.910788135640e-02 9.975915996210e-01 -6.481805360594e-02 9.975915996210e-01 -6.481805360594e-02 -3.200477260587e-03 -3.910788135640e-02
4.530000000000e+09 -3.224443872763e-03 -3.924501539027e-02 9.975716911115e-01 -6.504691373198e-02 9.975716911115e-01 -6.504691373198e-02 -3.224443872763e-03 -3.924501539027e-02
4.545000000000e+09 -3.248700937346e-03 -3.938200638632e-02 9.975513603866e-01 -6.527556941944e-02 9.975513603866e-01 -6.527556941944e-02 -3.248700937346e-03 -3.938200638632e-02
4.560000000000e+09 -3.273242389714e-03 -3.951885130118e-02 9.975306171593e-01 -6.550401540846e-02 9.975306171593e-01 -6.550401540846e-02 -3.273242389714e-03 -3.951885130118e-02
4.575000000000e+09 -3.298062213905e-03 -3.965554724496e-02 9.975094710697e-01 -6.573224668960e-02 9.975094710697e-01 -6.573224668960e-02 -3.298062213905e-03 -3.965554724496e-02
4.590000000000e+09 -3.323154443804e-03 -3.979209147713e-02 9.974879316833e-01 -6.596025849719e-02 9.974879316833e-01 -6.596025849719e-02 -3.323154443804e-03 -3.979209147713e-02
4.605000000000e+09 -3.348513164235e-03 -3.992848140248e-02 9.974660084886e-01 -6.618804630278e-02 9.974660084886e-01 -6.618804630278e-02 -3.348513164235e-03 -3.992848140248e-02
4.620000000000e+09 -3.374132511957e-03 -4.006471456724e-02 9.974437108956e-01 -6.641560580892e-02 9.974437108956e-01 -6.641560580892e-02 -3.374132511957e-03 -4.006471456724e-02
4.635000000000e+09 -3.400006676584e-03 -4.020078865524e-02 9.974210482341e-01 -6.664293294303e-02 9.974210482341e-01 -6.664293294303e-02 -3.400006676584e-03 -4.020078865524e-02
4.650000000000e+09 -3.426129901415e-03 -4.033670148425e-02 9.973980297523e-01 -6.687002385143e-02 9.973980297523e-01 -6.687002385143e-02 -3.426129901415e-03 -4.033670148425e-02
4.665000000000e+09 -3.452496484201e-03 -4.047245100238e-02 9.973746646151e-01 -6.709687489358e-02 9.973746646151e-01 -6.709687489358e-02 -3.452496484201e-03 -4.047245100238e-02
