# Hz S RI R 50
3.000000000000e+09 -7.685858779249e-04 -8.636021237930e-03 9.983818027539e-01 -2.371782430318e-02 9.983818027539e-01 -2.371782430318e-02 -7.685858779249e-04 -8.636021237930e-03
3.015000000000e+09 -7.634348585897e-04 -8.661712106039e-03 9.983996271637e-01 -2.378820923418e-02 9.983996271637e-01 -2.378820923418e-02 -7.634348585897e-04 -8.661712106039e-03
3.030000000000e+09 -7.580001533342e-04 -8.688062897111e-03 9.984182715270e-01 -2.386037711249e-02 9.984182715270e-01 -2.386037711249e-02 -7.580001533342e-04 -8.688062897111e-03
3.045000000000e+09 -7.523090232150e-04 -8.715062977743e-03 9.984376615156e-01 -2.393430048449e-02 9.984376615156e-01 -2.393430048449e-02 -7.523090232150e-04 -8.715062977743e-03
3.060000000000e+09 -7.463875635127e-04 -8.742701259383e-03 9.984577259514e-01 -2.400995060309e-02 9.984577259514e-01 -2.400995060309e-02 -7.463875635127e-04 -8.742701259383e-03
3.075000000000e+09 -7.402607291543e-04 -8.770966253866e-03 9.984783967388e-01 -2.408729757953e-02 9.984783967388e-01 -2.408729757953e-02 -7.402607291543e-04 -8.770966253866e-03
3.090000000000e+09 -7.339523613576e-04 -8.799846125654e-03 9.984996087943e-01 -2.416631052626e-02 9.984996087943e-01 -2.416631052626e-02 -7.339523613576e-04 -8.799846125654e-03
3.105000000000e+09 -7.274852152616e-04 -8.829328740876e-03 9.985212999724e-01 -2.424695769123e-02 9.985212999724e-01 -2.424695769123e-02 -7.274852152616e-04 -8.829328740876e-03
3.120000000000e+09 -7.208809883688e-04 -8.859401713276e-03 9.985434109903e-01 -2.432920658380e-02 9.985434109903e-01 -2.432920658380e-02 -7.208809883688e-04 -8.859401713276e-03
3.135000000000e+09 -7.141603496023e-04 -8.890052447183e-03 9.985658853494e-01 -2.441302409264e-02 9.985658853494e-01 -2.441302409264e-02 -7.141603496023e-04 -8.890052447183e-03
3.150000000000e+09 -7.073429688417e-04 -8.921268177594e-03 9.985886692573e-01 -2.449837659583e-02 9.985886692573e-01 -2.449837659583e-02 -7.073429688417e-04 -8.921268177594e-03
3.165000000000e+09 -7.004475467528e-04 -8.953036007504e-03 9.986117115470e-01 -2.458523006348e-02 9.986117115470e-01 -2.458523006348e-02 -7.004475467528e-04 -8.953036007504e-03
3.180000000000e+09 -6.934918448043e-04 -8.985342942596e-03 9.986349635969e-01 -2.467355015321e-02 9.986349635969e-01 -2.467355015321e-02 -6.934918448043e-04 -8.985342942596e-03
3.195000000000e+09 -6.864927153410e-04 -9.018175923395e-03 9.986583792497e-01 -2.476330229882e-02 9.986583792497e-01 -2.476330229882e-02 -6.864927153410e-04 -9.018175923395e-03
3.210000000000e+09 -6.794661315860e-04 -9.051521855014e-03 9.986819147324e-01 -2.485445179233e-02 9.986819147324e-01 -2.485445179233e-02 -6.794661315860e-04 -9.051521855014e-03
3.225000000000e+09 -6.724272175151e-04 -9.085367634602e-03 9.987055285753e-01 -2.494696385991e-02 9.987055285753e-01 -2.494696385991e-02 -6.724272175151e-04 -9.085367634602e-03
3.240000000000e+09 -6.653902774584e-04 -9.119700176620e-03 9.987291815328e-01 -2.504080373178e-02 9.987291815328e-01 -2.504080373178e-02 -6.653902774584e-04 -9.119700176620e-03
3.255000000000e+09 -6.583688254083e-04 -9.154506436036e-03 9.987528365044e-01 -2.513593670656e-02 9.987528365044e-01 -2.513593670656e-02 -6.583688254083e-04 -9.154506436036e-03
3.270000000000e+09 -6.513756139177e-04 -9.189773429559e-03 9.987764584568e-01 -2.523232821026e-02 9.987764584568e-01 -2.523232821026e-02 -6.513756139177e-04 -9.189773429559e-03
3.285000000000e+09 -6.444226625667e-04 -9.225488255041e-03 9.988000143470e-01 -2.532994385026e-02 9.988000143470e-01 -2.532994385026e-02 -6.444226625667e-04 -9.225488255041e-03
3.300000000000e+09 -6.375212859179e-04 -9.261638109107e-03 9.988234730473e-01 -2.542874946450e-02 9.988234730473e-01 -2.542874946450e-02 -6.375212859179e-04 -9.261638109107e-03
3.315000000000e+09 -6.306821209301e-04 -9.298210303160e-03 9.988468052711e-01 -2.552871116622e-02 9.988468052711e-01 -2.552871116622e-02 -6.306821209301e-04 -9.298210303160e-03
3.330000000000e+09 -6.239151537957e-04 -9.335192277817e-03 9.988699835004e-01 -2.562979538444e-02 9.988699835004e-01 -2.562979538444e-02 -6.239151537957e-04 -9.335192277817e-03
3.345000000000e+09 -6.172297461518e-04 -9.372571615920e-03 9.988929819152e-01 -2.573196890053e-02 9.988929819152e-01 -2.573196890053e-02 -6.172297461518e-04 -9.372571615920e-03
3.360000000000e+09 -6.106346606685e-04 -9.410336054154e-03 9.989157763239e-01 -2.583519888103e-02 9.989157763239e-01 -2.583519888103e-02 -6.106346606685e-04 -9.410336054154e-03
3.375000000000e+09 -6.041380859626e-04 -9.448473493415e-03 9.989383440968e-01 -2.593945290695e-02 9.989383440968e-01 -2.593945290695e-02 -6.041380859626e-04 -9.448473493415e-03
3.390000000000e+09 -5.977476608453e-04 -9.486972007967e-03 9.989606640997e-01 -2.604469899987e-02 9.989606640997e-01 -2.604469899987e-02 -5.977476608453e-04 -9.486972007967e-03
3.405000000000e+09 -5.914704978799e-04 -9.525819853495e-03 9.989827166305e-01 -2.615090564496e-02 9.989827166305e-01 -2.615090564496e-02 -5.914704978799e-04 -9.525819853495e-03
3.420000000000e+09 -5.853132062474e-04 -9.565005474133e-03 9.990044833575e-01 -2.625804181119e-02 9.990044833575e-01 -2.625804181119e-02 -5.853132062474e-04 -9.565005474133e-03
3.435000000000e+09 -5.792819139084e-04 -9.604517508505e-03 9.990259472590e-01 -2.636607696884e-02 9.990259472590e-01 -2.636607696884e-02 -5.792819139084e-04 -9.604517508505e-03
3.450000000000e+09 -5.733822890704e-04 -9.644344794885e-03 9.990470925657e-01 -2.647498110463e-02 9.990470925657e-01 -2.647498110463e-02 -5.733822890704e-04 -9.644344794885e-03
3.465000000000e+09 -5.676195609534e-04 -9.684476375531e-03 9.990679047038e-01 -2.658472473449e-02 9.990679047038e-01 -2.658472473449e-02 -5.676195609534e-04 -9.684476375531e-03
3.480000000000e+09 -5.619985398655e-04 -9.724901500243e-03 9.990883702414e-01 -2.669527891430e-02 9.990883702414e-01 -2.669527891430e-02 -5.619985398655e-04 -9.724901500243e-03
3.495000000000e+09 -5.565236365813e-04 -9.765609629211e-03 9.991084768350e-01 -2.680661524858e-02 9.991084768350e-01 -2.680661524858e-02 -5.565236365813e-04 -9.765609629211e-03
3.510000000000e+09 -5.511988810539e-04 -9.806590435217e-03 9.991282131798e-01 -2.691870589750e-02 9.991282131798e-01 -2.691870589750e-02 -5.511988810539e-04 -9.806590435217e-03
3.525000000000e+09 -5.460279404432e-04 -9.847833805223e-03 9.991475689600e-01 -2.703152358206e-02 9.991475689600e-01 -2.703152358206e-02 -5.460279404432e-04 -9.847833805223e-03
3.540000000000e+09 -5.410141364909e-04 -9.889329841419e-03 9.991665348021e-01 -2.714504158792e-02 9.991665348021e-01 -2.714504158792e-02 -5.410141364909e-04 -9.889329841419e-03
3.555000000000e+09 -5.361604622515e-04 -9.931068861748e-03 9.991851022293e-01 -2.725923376770e-02 9.991851022293e-01 -2.725923376770e-02 -5.361604622515e-04 -9.931068861748e-03
3.570000000000e+09 -5.314695981812e-04 -9.973041399988e-03 9.992032636182e-01 -2.737407454200e-02 9.992032636182e-01 -2.737407454200e-02 -5.314695981812e-04 -9.973041399988e-03
3.585000000000e+09 -5.269439276112e-04 -1.001523820538e-02 9.992210121561e-01 -2.748953889935e-02 9.992210121561e-01 -2.748953889935e-02 -5.269439276112e-04 -1.001523820538e-02
3.600000000000e+09 -5.225855516177e-04 -1.005765024192e-02 9.992383418014e-01 -2.760560239494e-02 9.992383418014e-01 -2.760560239494e-02 -5.225855516177e-04 -1.005765024192e-02
3.615000000000e+09 -5.183963033011e-04 -1.010026868724e-02 9.992552472444e-01 -2.772224114850e-02 9.992552472444e-01 -2.772224114850e-02 -5.183963033011e-04 -1.010026868724e-02
3.630000000000e+09 -5.143777614847e-04 -1.014308493120e-02 9.992717238700e-01 -2.783943184118e-02 9.992717238700e-01 -2.783943184118e-02 -5.143777614847e-04 -1.014308493120e-02
3.645000000000e+09 -5.105312638656e-04 -1.018609057424e-02 9.992877677223e-01 -2.795715171177e-02 9.992877677223e-01 -2.795715171177e-02 -5.105312638656e-04 -1.018609057424e-02
3.660000000000e+09 -5.068579196183e-04 -1.022927742539e-02 9.993033754703e-01 -2.807537855202e-02 9.993033754703e-01 -2.807537855202e-02 -5.068579196183e-04 -1.022927742539e-02
3.675000000000e+09 -5.033586214697e-04 -1.027263750010e-02 9.993185443746e-01 -2.819409070150e-02 9.993185443746e-01 -2.819409070150e-02 -5.033586214697e-04 -1.027263750010e-02
3.690000000000e+09 -5.000340572745e-04 -1.031616301790e-02 9.993332722567e-01 -2.831326704174e-02 9.993332722567e-01 -2.831326704174e-02 -5.000340572745e-04 -1.031616301790e-02
3.705000000000e+09 -4.968847210859e-04 -1.035984639977e-02 9.993475574683e-01 -2.843288698991e-02 9.993475574683e-01 -2.843288698991e-02 -4.968847210859e-04 -1.035984639977e-02
3.720000000000e+09 -4.939109237628e-04 -1.040368026549e-02 9.993613988628e-01 -2.855293049207e-02 9.993613988628e-01 -2.855293049207e-02 -4.939109237628e-04 -1.040368026549e-02
3.735000000000e+09 -4.911128031080e-04 -1.044765743071e-02 9.993747957674e-01 -2.867337801594e-02 9.993747957674e-01 -2.867337801594e-02 -4.911128031080e-04 -1.044765743071e-02
3.750000000000e+09 -4.884903335642e-04 -1.049177090403e-02 9.993877479571e-01 -2.879421054341e-02 9.993877479571e-01 -2.879421054341e-02 -4.884903335642e-04 -1.049177090403e-02
3.765000000000e+09 -4.860433354867e-04 -1.053601388389e-02 9.994002556293e-01 -2.891540956268e-02 9.994002556293e-01 -2.891540956268e-02 -4.860433354867e-04 -1.053601388389e-02
3.780000000000e+09 -4.837714839962e-04 -1.058037975539e-02 9.994123193795e-01 -2.903695706019e-02 9.994123193795e-01 -2.903695706019e-02 -4.837714839962e-04 -1.058037975539e-02
3.795000000000e+09 -4.816743174391e-04 -1.062486208702e-02 9.994239401789e-01 -2.915883551226e-02 9.994239401789e-01 -2.915883551226e-02 -4.816743174391e-04 -1.062486208702e-02
3.810000000000e+09 -4.797512454659e-04 -1.066945462743e-02 9.994351193515e-01 -2.928102787664e-02 9.994351193515e-01 -2.928102787664e-02 -4.797512454659e-04 -1.066945462743e-02
3.825000000000e+09 -4.780015567352e-04 -1.071415130201e-02 9.994458585541e-01 -2.940351758384e-02 9.994458585541e-01 -2.940351758384e-02 -4.780015567352e-04 -1.071415130201e-02
3.840000000000e+09 -4.764244262737e-04 -1.075894620949e-02 9.994561597555e-01 -2.952628852837e-02 9.994561597555e-01 -2.952628852837e-02 -4.764244262737e-04 -1.075894620949e-02
3.855000000000e+09 -4.750189224891e-04 -1.080383361859e-02 9.994660252178e-01 -2.964932505989e-02 9.994660252178e-01 -2.964932505989e-02 -4.750189224891e-04 -1.080383361859e-02
3.870000000000e+09 -4.737840138588e-04 -1.084880796451e-02 9.994754574782e-01 -2.977261197429e-02 9.994754574782e-01 -2.977261197429e-02 -4.737840138588e-04 -1.084880796451e-02
3.885000000000e+09 -4.727185753057e-04 -1.089386384556e-02 9.994844593314e-01 -2.989613450474e-02 9.994844593314e-01 -2.989613450474e-02 -4.727185753057e-04 -1.089386384556e-02
3.900000000000e+09 -4.718213942761e-04 -1.093899601966e-02 9.994930338133e-01 -3.001987831272e-02 9.994930338133e-01 -3.001987831272e-02 -4.718213942761e-04 -1.093899601966e-02
3.915000000000e+09 -4.710911765235e-04 -1.098419940092e-02 9.995011841850e-01 -3.014382947903e-02 9.995011841850e-01 -3.014382947903e-02 -4.710911765235e-04 -1.098419940092e-02
3.930000000000e+09 -4.705265516221e-04 -1.102946905624e-02 9.995089139181e-01 -3.026797449488e-02 9.995089139181e-01 -3.026797449488e-02 -4.705265516221e-04 -1.102946905624e-02
3.945000000000e+09 -4.701260782128e-04 -1.107480020190e-02 9.995162266800e-01 -3.039230025295e-02 9.995162266800e-01 -3.039230025295e-02 -4.701260782128e-04 -1.107480020190e-02
3.960000000000e+09 -4.698882489969e-04 -1.112018820016e-02 9.995231263208e-01 -3.051679403857e-02 9.995231263208e-01 -3.051679403857e-02 -4.698882489969e-04 -1.112018820016e-02
3.975000000000e+09 -4.698114954858e-04 -1.116562855593e-02 9.995296168600e-01 -3.064144352085e-02 9.995296168600e-01 -3.064144352085e-02 -4.698114954858e-04 -1.116562855593e-02
3.990000000000e+09 -4.698941925204e-04 -1.121111691346e-02 9.995357024741e-01 -3.076623674406e-02 9.995357024741e-01 -3.076623674406e-02 -4.698941925204e-04 -1.121111691346e-02
4.005000000000e+09 -4.701346625665e-04 -1.125664905304e-02 9.995413874852e-01 -3.089116211893e-02 9.995413874852e-01 -3.089116211893e-02 -4.701346625665e-04 -1.125664905304e-02
4.020000000000e+09 -4.705311798017e-04 -1.130222088778e-02 9.995466763499e-01 -3.101620841414e-02 9.995466763499e-01 -3.101620841414e-02 -4.705311798017e-04 -1.130222088778e-02
4.035000000000e+09 -4.710819739900e-04 -1.134782846042e-02 9.995515736484e-01 -3.114136474793e-02 9.995515736484e-01 -3.114136474793e-02 -4.710819739900e-04 -1.134782846042e-02
4.050000000000e+09 -4.717852341740e-04 -1.139346794015e-02 9.995560840746e-01 -3.126662057972e-02 9.995560840746e-01 -3.126662057972e-02 -4.717852341740e-04 -1.139346794015e-02
4.065000000000e+09 -4.726391121736e-04 -1.143913561955e-02 9.995602124267e-01 -3.139196570198e-02 9.995602124267e-01 -3.139196570198e-02 -4.726391121736e-04 -1.143913561955e-02
4.080000000000e+09 -4.736417259079e-04 -1.148482791150e-02 9.995639635979e-01 -3.151739023210e-02 9.995639635979e-01 -3.151739023210e-02 -4.736417259079e-04 -1.148482791150e-02
4.095000000000e+09 -4.747911625523e-04 -1.153054134622e-02 9.995673425682e-01 -3.164288460452e-02 9.995673425682e-01 -3.164288460452e-02 -4.747911625523e-04 -1.153054134622e-02
4.110000000000e+09 -4.760854815286e-04 -1.157627256829e-02 9.995703543956e-01 -3.176843956286e-02 9.995703543956e-01 -3.176843956286e-02 -4.760854815286e-04 -1.157627256829e-02
4.125000000000e+09 -4.775227173447e-04 -1.162201833377e-02 9.995730042091e-01 -3.189404615230e-02 9.995730042091e-01 -3.189404615230e-02 -4.775227173447e-04 -1.162201833377e-02
4.140000000000e+09 -4.791008822825e-04 -1.166777550737e-02 9.995752972008e-01 -3.201969571201e-02 9.995752972008e-01 -3.201969571201e-02 -4.791008822825e-04 -1.166777550737e-02
4.155000000000e+09 -4.808179689507e-04 -1.171354105967e-02 9.995772386193e-01 -3.214537986781e-02 9.995772386193e-01 -3.214537986781e-02 -4.808179689507e-04 -1.171354105967e-02
4.170000000000e+09 -4.826719526988e-04 -1.175931206436e-02 9.995788337628e-01 -3.227109052489e-02 9.995788337628e-01 -3.227109052489e-02 -4.826719526988e-04 -1.175931206436e-02
4.185000000000e+09 -4.846607939056e-04 -1.180508569563e-02 9.995800879734e-01 -3.239681986072e-02 9.995800879734e-01 -3.239681986072e-02 -4.846607939056e-04 -1.180508569563e-02
4.200000000000e+09 -4.867824401451e-04 -1.185085922550e-02 9.995810066304e-01 -3.252256031812e-02 9.995810066304e-01 -3.252256031812e-02 -4.867824401451e-04 -1.185085922550e-02
4.215000000000e+09 -4.890348282345e-04 -1.189663002130e-02 9.995815951455e-01 -3.264830459841e-02 9.995815951455e-01 -3.264830459841e-02 -4.890348282345e-04 -1.189663002130e-02
4.230000000000e+09 -4.914158861754e-04 -1.194239554316e-02 9.995818589571e-01 -3.277404565481e-02 9.995818589571e-01 -3.277404565481e-02 -4.914158861754e-04 -1.194239554316e-02
4.245000000000e+09 -4.939235349821e-04 -1.198815334157e-02 9.995818035253e-01 -3.289977668589e-02 9.995818035253e-01 -3.289977668589e-02 -4.939235349821e-04 -1.198815334157e-02
4.260000000000e+09 -4.965556904181e-04 -1.203390105499e-02 9.995814343273e-01 -3.302549112920e-02 9.995814343273e-01 -3.302549112920e-02 -4.965556904181e-04 -1.203390105499e-02
4.275000000000e+09 -4.993102646284e-04 -1.207963640751e-02 9.995807568530e-01 -3.315118265508e-02 9.995807568530e-01 -3.315118265508e-02 -4.993102646284e-04 -1.207963640751e-02
4.290000000000e+09 -5.021851676862e-04 -1.212535720662e-02 9.995797766006e-01 -3.327684516053e-02 9.995797766006e-01 -3.327684516053e-02 -5.021851676862e-04 -1.212535720662e-02
4.305000000000e+09 -5.051783090487e-04 -1.217106134092e-02 9.995784990727e-01 -3.340247276335e-02 9.995784990727e-01 -3.340247276335e-02 -5.051783090487e-04 -1.217106134092e-02
4.320000000000e+09 -5.082875989326e-04 -1.221674677800e-02 9.995769297728e-01 -3.352805979628e-02 9.995769297728e-01 -3.352805979628e-02 -5.082875989326e-04 -1.221674677800e-02
4.335000000000e+09 -5.115109496097e-04 -1.226241156234e-02 9.995750742012e-01 -3.365360080137e-02 9.995750742012e-01 -3.365360080137e-02 -5.115109496097e-04 -1.226241156234e-02
4.350000000000e+09 -5.148462766249e-04 -1.230805381320e-02 9.995729378524e-01 -3.377909052449e-02 9.995729378524e-01 -3.377909052449e-02 -5.148462766249e-04 -1.230805381320e-02
4.365000000000e+09 -5.182914999481e-04 -1.235367172266e-02 9.995705262114e-01 -3.390452390990e-02 9.995705262114e-01 -3.390452390990e-02 -5.182914999481e-04 -1.235367172266e-02
4.380000000000e+09 -5.218445450526e-04 -1.239926355363e-02 9.995678447509e-01 -3.402989609505e-02 9.995678447509e-01 -3.402989609505e-02 -5.218445450526e-04 -1.239926355363e-02
4.395000000000e+09 -5.255033439313e-04 -1.244482763797e-02 9.995648989287e-01 -3.415520240545e-02 9.995648989287e-01 -3.415520240545e-02 -5.255033439313e-04 -1.244482763797e-02
4.410000000000e+09 -5.292658360515e-04 -1.249036237461e-02 9.995616941850e-01 -3.428043834970e-02 9.995616941850e-01 -3.428043834970e-02 -5.292658360515e-04 -1.249036237461e-02
4.425000000000e+09 -5.331299692499e-04 -1.253586622778e-02 9.995582359398e-01 -3.440559961460e-02 9.995582359398e-01 -3.440559961460e-02 -5.331299692499e-04 -1.253586622778e-02
4.440000000000e+09 -5.370937005738e-04 -1.258133772521e-02 9.995545295910e-01 -3.453068206049e-02 9.995545295910e-01 -3.453068206049e-02 -5.370937005738e-04 -1.258133772521e-02
4.455000000000e+09 -5.411549970662e-04 -1.262677545642e-02 9.995505805119e-01 -3.465568171657e-02 9.995505805119e-01 -3.465568171657e-02 -5.411549970662e-04 -1.262677545642e-02
4.470000000000e+09 -5.453118365036e-04 -1.267217807110e-02 9.995463940491e-01 -3.478059477648e-02 9.995463940491e-01 -3.478059477648e-02 -5.453118365036e-04 -1.267217807110e-02
4.485000000000e+09 -5.495622080830e-04 -1.271754427742e-02 9.995419755212e-01 -3.490541759389e-02 9.995419755212e-01 -3.490541759389e-02 -5.495622080830e-04 -1.271754427742e-02
4.500000000000e+09 -5.539041130687e-04 -1.276287284051e-02 9.995373302164e-01 -3.503014667827e-02 9.995373302164e-01 -3.503014667827e-02 -5.539041130687e-04 -1.276287284051e-02
4.515000000000e+09 -5.583355653891e-04 -1.280816258091e-02 9.995324633913e-01 -3.515477869078e-02 9.995324633913e-01 -3.515477869078e-02 -5.583355653891e-04 -1.280816258091e-02
4.530000000000e+09 -5.628545921963e-04 -1.285341237304e-02 9.995273802690e-01 -3.527931044020e-02 9.995273802690e-01 -3.527931044020e-02 -5.628545921963e-04 -1.285341237304e-02
4.545000000000e+09 -5.674592343878e-04 -1.289862114382e-02 9.995220860383e-01 -3.540373887905e-02 9.995220860383e-01 -3.540373887905e-02 -5.674592343878e-04 -1.289862114382e-02
4.560000000000e+09 -5.721475470874e-04 -1.294378787119e-02 9.995165858515e-01 -3.552806109979e-02 9.995165858515e-01 -3.552806109979e-02 -5.721475470874e-04 -1.294378787119e-02
4.575000000000e+09 -5.769176000942e-04 -1.298891158279e-02 9.995108848241e-01 -3.565227433109e-02 9.995108848241e-01 -3.565227433109e-02 -5.769176000942e-04 -1.298891158279e-02
4.590000000000e+09 -5.817674782986e-04 -1.303399135459e-02 9.995049880330e-01 -3.577637593424e-02 9.995049880330e-01 -3.577637593424e-02 -5.817674782986e-04 -1.303399135459e-02
4.605000000000e+09 -5.866952820629e-04 -1.307902630963e-02 9.994989005156e-01 -3.590036339968e-02 9.994989005156e-01 -3.590036339968e-02 -5.866952820629e-04 -1.307902630963e-02
4.620000000000e+09 -5.916991275758e-04 -1.312401561673e-02 9.994926272693e-01 -3.602423434354e-02 9.994926272693e-01 -3.602423434354e-02 -5.916991275758e-04 -1.312401561673e-02
4.635000000000e+09 -5.967771471778e-04 -1.316895848930e-02 9.994861732497e-01 -3.614798650440e-02 9.994861732497e-01 -3.614798650440e-02 -5.967771471778e-04 -1.316895848930e-02
4.650000000000e+09 -6.019274896577e-04 -1.321385418411e-02 9.994795433709e-01 -3.627161774000e-02 9.994795433709e-01 -3.627161774000e-02 -6.019274896577e-04 -1.321385418411e-02
4.665000000000e+09 -6.071483205256e-04 -1.325870200018e-02 9.994727425037e-01 -3.639512602418e-02 9.994727425037e-01 -3.639512602418e-02 -6.071483205256e-04 -1.325870200018e-02
