# Hz S RI R 50
3.000000000000e+09 -3.492967796939e-04 -1.106625669646e-02 9.996177160101e-01 -2.400800183351e-02 9.996177160101e-01 -2.400800183351e-02 -3.492967796939e-04 -1.106625669646e-02
3.015000000000e+09 -3.536588524164e-04 -1.112264283952e-02 9.996128993510e-01 -2.412526314299e-02 9.996128993510e-01 -2.412526314299e-02 -3.536588524164e-04 -1.112264283952e-02
3.030000000000e+09 -3.580449222717e-04 -1.117898675435e-02 9.996081825373e-01 -2.424254659255e-02 9.996081825373e-01 -2.424254659255e-02 -3.580449222717e-04 -1.117898675435e-02
3.045000000000e+09 -3.624537858788e-04 -1.123528881777e-02 9.996035611802e-01 -2.435985398383e-02 9.996035611802e-01 -2.435985398383e-02 -3.624537858788e-04 -1.123528881777e-02
3.060000000000e+09 -3.668843098658e-04 -1.129154945756e-02 9.995990309531e-01 -2.447718695182e-02 9.995990309531e-01 -2.447718695182e-02 -3.668843098658e-04 -1.129154945756e-02
3.075000000000e+09 -3.713354290527e-04 -1.134776914773e-02 9.995945875982e-01 -2.459454697367e-02 9.995945875982e-01 -2.459454697367e-02 -3.713354290527e-04 -1.134776914773e-02
3.090000000000e+09 -3.758061445095e-04 -1.140394840411e-02 9.995902269319e-01 -2.471193537728e-02 9.995902269319e-01 -2.471193537728e-02 -3.758061445095e-04 -1.140394840411e-02
3.105000000000e+09 -3.802955215063e-04 -1.146008778017e-02 9.995859448499e-01 -2.482935334979e-02 9.995859448499e-01 -2.482935334979e-02 -3.802955215063e-04 -1.146008778017e-02
3.120000000000e+09 -3.848026873882e-04 -1.151618786300e-02 9.995817373317e-01 -2.494680194582e-02 9.995817373317e-01 -2.494680194582e-02 -3.848026873882e-04 -1.151618786300e-02
3.135000000000e+09 -3.893268293624e-04 -1.157224926965e-02 9.995776004439e-01 -2.506428209546e-02 9.995776004439e-01 -2.506428209546e-02 -3.893268293624e-04 -1.157224926965e-02
3.150000000000e+09 -3.938671922758e-04 -1.162827264360e-02 9.995735303434e-01 -2.518179461211e-02 9.995735303434e-01 -2.518179461211e-02 -3.938671922758e-04 -1.162827264360e-02
3.165000000000e+09 -3.984230763168e-04 -1.168425865148e-02 9.995695232798e-01 -2.529934019992e-02 9.995695232798e-01 -2.529934019992e-02 -3.984230763168e-04 -1.168425865148e-02
3.180000000000e+09 -4.029938347387e-04 -1.174020797997e-02 9.995655755976e-01 -2.541691946109e-02 9.995655755976e-01 -2.541691946109e-02 -4.029938347387e-04 -1.174020797997e-02
3.195000000000e+09 -4.075788715496e-04 -1.179612133300e-02 9.995616837374e-01 -2.553453290276e-02 9.995616837374e-01 -2.553453290276e-02 -4.075788715496e-04 -1.179612133300e-02
3.210000000000e+09 -4.121776392327e-04 -1.185199942901e-02 9.995578442373e-01 -2.565218094368e-02 9.995578442373e-01 -2.565218094368e-02 -4.121776392327e-04 -1.185199942901e-02
3.225000000000e+09 -4.167896364624e-04 -1.190784299852e-02 9.995540537333e-01 -2.576986392059e-02 9.995540537333e-01 -2.576986392059e-02 -4.167896364624e-04 -1.190784299852e-02
3.240000000000e+09 -4.214144058651e-04 -1.196365278181e-02 9.995503089598e-01 -2.588758209427e-02 9.995503089598e-01 -2.588758209427e-02 -4.214144058651e-04 -1.196365278181e-02
3.255000000000e+09 -4.260515318058e-04 -1.201942952675e-02 9.995466067498e-01 -2.600533565528e-02 9.995466067498e-01 -2.600533565528e-02 -4.260515318058e-04 -1.201942952675e-02
3.270000000000e+09 -4.307006382148e-04 -1.207517398689e-02 9.995429440342e-01 -2.612312472946e-02 9.995429440342e-01 -2.612312472946e-02 -4.307006382148e-04 -1.207517398689e-02
3.285000000000e+09 -4.353613864697e-04 -1.213088691960e-02 9.995393178416e-01 -2.624094938311e-02 9.995393178416e-01 -2.624094938311e-02 -4.353613864697e-04 -1.213088691960e-02
3.300000000000e+09 -4.400334733189e-04 -1.218656908441e-02 9.995357252973e-01 -2.635880962785e-02 9.995357252973e-01 -2.635880962785e-02 -4.400334733189e-04 -1.218656908441e-02
3.315000000000e+09 -4.447166288715e-04 -1.224222124146e-02 9.995321636226e-01 -2.647670542527e-02 9.995321636226e-01 -2.647670542527e-02 -4.447166288715e-04 -1.224222124146e-02
3.330000000000e+09 -4.494106146400e-04 -1.229784415011e-02 9.995286301334e-01 -2.659463669128e-02 9.995286301334e-01 -2.659463669128e-02 -4.494106146400e-04 -1.229784415011e-02
3.345000000000e+09 -4.541152216475e-04 -1.235343856763e-02 9.995251222389e-01 -2.671260330017e-02 9.995251222389e-01 -2.671260330017e-02 -4.541152216475e-04 -1.235343856763e-02
3.360000000000e+09 -4.588302686045e-04 -1.240900524806e-02 9.995216374404e-01 -2.683060508845e-02 9.995216374404e-01 -2.683060508845e-02 -4.588302686045e-04 -1.240900524806e-02
3.375000000000e+09 -4.635556001435e-04 -1.246454494106e-02 9.995181733292e-01 -2.694864185844e-02 9.995181733292e-01 -2.694864185844e-02 -4.635556001435e-04 -1.246454494106e-02
3.390000000000e+09 -4.682910851258e-04 -1.252005839105e-02 9.995147275856e-01 -2.706671338163e-02 9.995147275856e-01 -2.706671338163e-02 -4.682910851258e-04 -1.252005839105e-02
3.405000000000e+09 -4.730366150120e-04 -1.257554633622e-02 9.995112979765e-01 -2.718481940176e-02 9.995112979765e-01 -2.718481940176e-02 -4.730366150120e-04 -1.257554633622e-02
3.420000000000e+09 -4.777921023109e-04 -1.263100950784e-02 9.995078823537e-01 -2.730295963780e-02 9.995078823537e-01 -2.730295963780e-02 -4.777921023109e-04 -1.263100950784e-02
3.435000000000e+09 -4.825574790803e-04 -1.268644862944e-02 9.995044786523e-01 -2.742113378660e-02 9.995044786523e-01 -2.742113378660e-02 -4.825574790803e-04 -1.268644862944e-02
3.450000000000e+09 -4.873326955044e-04 -1.274186441626e-02 9.995010848884e-01 -2.753934152541e-02 9.995010848884e-01 -2.753934152541e-02 -4.873326955044e-04 -1.274186441626e-02
3.465000000000e+09 -4.921177185399e-04 -1.279725757463e-02 9.994976991573e-01 -2.765758251422e-02 9.994976991573e-01 -2.765758251422e-02 -4.921177185399e-04 -1.279725757463e-02
3.480000000000e+09 -4.969125306200e-04 -1.285262880149e-02 9.994943196313e-01 -2.777585639789e-02 9.994943196313e-01 -2.777585639789e-02 -4.969125306200e-04 -1.285262880149e-02
3.495000000000e+09 -5.017171284251e-04 -1.290797878391e-02 9.994909445577e-01 -2.789416280813e-02 9.994909445577e-01 -2.789416280813e-02 -5.017171284251e-04 -1.290797878391e-02
3.510000000000e+09 -5.065315217230e-04 -1.296330819872e-02 9.994875722570e-01 -2.801250136534e-02 9.994875722570e-01 -2.801250136534e-02 -5.065315217230e-04 -1.296330819872e-02
3.525000000000e+09 -5.113557322569e-04 -1.301861771217e-02 9.994842011204e-01 -2.813087168027e-02 9.994842011204e-01 -2.813087168027e-02 -5.113557322569e-04 -1.301861771217e-02
3.540000000000e+09 -5.161897927045e-04 -1.307390797962e-02 9.994808296081e-01 -2.824927335557e-02 9.994808296081e-01 -2.824927335557e-02 -5.161897927045e-04 -1.307390797962e-02
3.555000000000e+09 -5.210337456926e-04 -1.312917964529e-02 9.994774562472e-01 -2.836770598715e-02 9.994774562472e-01 -2.836770598715e-02 -5.210337456926e-04 -1.312917964529e-02
3.570000000000e+09 -5.258876428595e-04 -1.318443334205e-02 9.994740796295e-01 -2.848616916554e-02 9.994740796295e-01 -2.848616916554e-02 -5.258876428595e-04 -1.318443334205e-02
3.585000000000e+09 -5.307515439866e-04 -1.323966969124e-02 9.994706984095e-01 -2.860466247698e-02 9.994706984095e-01 -2.860466247698e-02 -5.307515439866e-04 -1.323966969124e-02
3.600000000000e+09 -5.356255161676e-04 -1.329488930251e-02 9.994673113028e-01 -2.872318550452e-02 9.994673113028e-01 -2.872318550452e-02 -5.356255161676e-04 -1.329488930251e-02
3.615000000000e+09 -5.405096330371e-04 -1.335009277373e-02 9.994639170836e-01 -2.884173782897e-02 9.994639170836e-01 -2.884173782897e-02 -5.405096330371e-04 -1.335009277373e-02
3.630000000000e+09 -5.454039740410e-04 -1.340528069089e-02 9.994605145832e-01 -2.896031902976e-02 9.994605145832e-01 -2.896031902976e-02 -5.454039740410e-04 -1.340528069089e-02
3.645000000000e+09 -5.503086237645e-04 -1.346045362804e-02 9.994571026877e-01 -2.907892868573e-02 9.994571026877e-01 -2.907892868573e-02 -5.503086237645e-04 -1.346045362804e-02
3.660000000000e+09 -5.552236712889e-04 -1.351561214724e-02 9.994536803364e-01 -2.919756637581e-02 9.994536803364e-01 -2.919756637581e-02 -5.552236712889e-04 -1.351561214724e-02
3.675000000000e+09 -5.601492096065e-04 -1.357075679855e-02 9.994502465202e-01 -2.931623167967e-02 9.994502465202e-01 -2.931623167967e-02 -5.601492096065e-04 -1.357075679855e-02
3.690000000000e+09 -5.650853350618e-04 -1.362588812006e-02 9.994468002791e-01 -2.943492417822e-02 9.994468002791e-01 -2.943492417822e-02 -5.650853350618e-04 -1.362588812006e-02
3.705000000000e+09 -5.700321468464e-04 -1.368100663785e-02 9.994433407012e-01 -2.955364345416e-02 9.994433407012e-01 -2.955364345416e-02 -5.700321468464e-04 -1.368100663785e-02
3.720000000000e+09 -5.749897465192e-04 -1.373611286609e-02 9.994398669205e-01 -2.967238909238e-02 9.994398669205e-01 -2.967238909238e-02 -5.749897465192e-04 -1.373611286609e-02
3.735000000000e+09 -5.799582375668e-04 -1.379120730702e-02 9.994363781153e-01 -2.979116068034e-02 9.994363781153e-01 -2.979116068034e-02 -5.799582375668e-04 -1.379120730702e-02
3.750000000000e+09 -5.849377249982e-04 -1.384629045110e-02 9.994328735068e-01 -2.990995780839e-02 9.994328735068e-01 -2.990995780839e-02 -5.849377249982e-04 -1.384629045110e-02
3.765000000000e+09 -5.899283149679e-04 -1.390136277699e-02 9.994293523573e-01 -3.002878007005e-02 9.994293523573e-01 -3.002878007005e-02 -5.899283149679e-04 -1.390136277699e-02
3.780000000000e+09 -5.949301144342e-04 -1.395642475170e-02 9.994258139686e-01 -3.014762706226e-02 9.994258139686e-01 -3.014762706226e-02 -5.949301144342e-04 -1.395642475170e-02
3.795000000000e+09 -5.999432308402e-04 -1.401147683067e-02 9.994222576807e-01 -3.026649838557e-02 9.994222576807e-01 -3.026649838557e-02 -5.999432308402e-04 -1.401147683067e-02
3.810000000000e+09 -6.049677718282e-04 -1.406651945786e-02 9.994186828702e-01 -3.038539364431e-02 9.994186828702e-01 -3.038539364431e-02 -6.049677718282e-04 -1.406651945786e-02
3.825000000000e+09 -6.100038449742e-04 -1.412155306586e-02 9.994150889488e-01 -3.050431244669e-02 9.994150889488e-01 -3.050431244669e-02 -6.100038449742e-04 -1.412155306586e-02
3.840000000000e+09 -6.150515575495e-04 -1.417657807604e-02 9.994114753620e-01 -3.062325440498e-02 9.994114753620e-01 -3.062325440498e-02 -6.150515575495e-04 -1.417657807604e-02
3.855000000000e+09 -6.201110163074e-04 -1.423159489861e-02 9.994078415877e-01 -3.074221913551e-02 9.994078415877e-01 -3.074221913551e-02 -6.201110163074e-04 -1.423159489861e-02
3.870000000000e+09 -6.251823272826e-04 -1.428660393284e-02 9.994041871352e-01 -3.086120625875e-02 9.994041871352e-01 -3.086120625875e-02 -6.251823272826e-04 -1.428660393284e-02
3.885000000000e+09 -6.302655956232e-04 -1.434160556710e-02 9.994005115432e-01 -3.098021539937e-02 9.994005115432e-01 -3.098021539937e-02 -6.302655956232e-04 -1.434160556710e-02
3.900000000000e+09 -6.353609254302e-04 -1.439660017907e-02 9.993968143794e-01 -3.109924618623e-02 9.993968143794e-01 -3.109924618623e-02 -6.353609254302e-04 -1.439660017907e-02
3.915000000000e+09 -6.404684196247e-04 -1.445158813583e-02 9.993930952388e-01 -3.121829825237e-02 9.993930952388e-01 -3.121829825237e-02 -6.404684196247e-04 -1.445158813583e-02
3.930000000000e+09 -6.455881798211e-04 -1.450656979403e-02 9.993893537426e-01 -3.133737123502e-02 9.993893537426e-01 -3.133737123502e-02 -6.455881798211e-04 -1.450656979403e-02
3.945000000000e+09 -6.507203062278e-04 -1.456154550006e-02 9.993855895373e-01 -3.145646477553e-02 9.993855895373e-01 -3.145646477553e-02 -6.507203062278e-04 -1.456154550006e-02
3.960000000000e+09 -6.558648975523e-04 -1.461651559015e-02 9.993818022933e-01 -3.157557851940e-02 9.993818022933e-01 -3.157557851940e-02 -6.558648975523e-04 -1.461651559015e-02
3.975000000000e+09 -6.610220509260e-04 -1.467148039056e-02 9.993779917042e-01 -3.169471211614e-02 9.993779917042e-01 -3.169471211614e-02 -6.610220509260e-04 -1.467148039056e-02
3.990000000000e+09 -6.661918618415e-04 -1.472644021770e-02 9.993741574853e-01 -3.181386521928e-02 9.993741574853e-01 -3.181386521928e-02 -6.661918618415e-04 -1.472644021770e-02
4.005000000000e+09 -6.713744240945e-04 -1.478139537833e-02 9.993702993733e-01 -3.193303748627e-02 9.993702993733e-01 -3.193303748627e-02 -6.713744240945e-04 -1.478139537833e-02
4.020000000000e+09 -6.765698297491e-04 -1.483634616969e-02 9.993664171246e-01 -3.205222857841e-02 9.993664171246e-01 -3.205222857841e-02 -6.765698297491e-04 -1.483634616969e-02
4.035000000000e+09 -6.817781691018e-04 -1.489129287964e-02 9.993625105149e-01 -3.217143816077e-02 9.993625105149e-01 -3.217143816077e-02 -6.817781691018e-04 -1.489129287964e-02
4.050000000000e+09 -6.869995306627e-04 -1.494623578685e-02 9.993585793383e-01 -3.229066590215e-02 9.993585793383e-01 -3.229066590215e-02 -6.869995306627e-04 -1.494623578685e-02
4.065000000000e+09 -6.922340011393e-04 -1.500117516093e-02 9.993546234061e-01 -3.240991147492e-02 9.993546234061e-01 -3.240991147492e-02 -6.922340011393e-04 -1.500117516093e-02
4.080000000000e+09 -6.974816654335e-04 -1.505611126262e-02 9.993506425462e-01 -3.252917455499e-02 9.993506425462e-01 -3.252917455499e-02 -6.974816654335e-04 -1.505611126262e-02
4.095000000000e+09 -7.027426066441e-04 -1.511104434392e-02 9.993466366023e-01 -3.264845482169e-02 9.993466366023e-01 -3.264845482169e-02 -7.027426066441e-04 -1.511104434392e-02
4.110000000000e+09 -7.080169060746e-04 -1.516597464825e-02 9.993426054332e-01 -3.276775195771e-02 9.993426054332e-01 -3.276775195771e-02 -7.080169060746e-04 -1.516597464825e-02
4.125000000000e+09 -7.133046432481e-04 -1.522090241061e-02 9.993385489117e-01 -3.288706564897e-02 9.993385489117e-01 -3.288706564897e-02 -7.133046432481e-04 -1.522090241061e-02
4.140000000000e+09 -7.186058959294e-04 -1.527582785776e-02 9.993344669244e-01 -3.300639558456e-02 9.993344669244e-01 -3.300639558456e-02 -7.186058959294e-04 -1.527582785776e-02
4.155000000000e+09 -7.239207401508e-04 -1.533075120833e-02 9.993303593707e-01 -3.312574145665e-02 9.993303593707e-01 -3.312574145665e-02 -7.239207401508e-04 -1.533075120833e-02
4.170000000000e+09 -7.292492502424e-04 -1.538567267302e-02 9.993262261621e-01 -3.324510296037e-02 9.993262261621e-01 -3.324510296037e-02 -7.292492502424e-04 -1.538567267302e-02
4.185000000000e+09 -7.345914988665e-04 -1.544059245474e-02 9.993220672215e-01 -3.336447979375e-02 9.993220672215e-01 -3.336447979375e-02 -7.345914988665e-04 -1.544059245474e-02
4.200000000000e+09 -7.399475570568e-04 -1.549551074873e-02 9.993178824832e-01 -3.348387165762e-02 9.993178824832e-01 -3.348387165762e-02 -7.399475570568e-04 -1.549551074873e-02
4.215000000000e+09 -7.453174942611e-04 -1.555042774277e-02 9.993136718913e-01 -3.360327825555e-02 9.993136718913e-01 -3.360327825555e-02 -7.453174942611e-04 -1.555042774277e-02
4.230000000000e+09 -7.507013783841e-04 -1.560534361731e-02 9.993094353999e-01 -3.372269929372e-02 9.993094353999e-01 -3.372269929372e-02 -7.507013783841e-04 -1.560534361731e-02
4.245000000000e+09 -7.560992758370e-04 -1.566025854558e-02 9.993051729724e-01 -3.384213448091e-02 9.993051729724e-01 -3.384213448091e-02 -7.560992758370e-04 -1.566025854558e-02
4.260000000000e+09 -7.615112515864e-04 -1.571517269382e-02 9.993008845806e-01 -3.396158352833e-02 9.993008845806e-01 -3.396158352833e-02 -7.615112515864e-04 -1.571517269382e-02
4.275000000000e+09 -7.669373692053e-04 -1.577008622134e-02 9.992965702046e-01 -3.408104614964e-02 9.992965702046e-01 -3.408104614964e-02 -7.669373692053e-04 -1.577008622134e-02
4.290000000000e+09 -7.723776909288e-04 -1.582499928073e-02 9.992922298323e-01 -3.420052206081e-02 9.992922298323e-01 -3.420052206081e-02 -7.723776909288e-04 -1.582499928073e-02
4.305000000000e+09 -7.778322777068e-04 -1.587991201799e-02 9.992878634585e-01 -3.432001098010e-02 9.992878634585e-01 -3.432001098010e-02 -7.778322777068e-04 -1.587991201799e-02
4.320000000000e+09 -7.833011892602e-04 -1.593482457266e-02 9.992834710850e-01 -3.443951262794e-02 9.992834710850e-01 -3.443951262794e-02 -7.833011892602e-04 -1.593482457266e-02
4.335000000000e+09 -7.887844841399e-04 -1.598973707798e-02 9.992790527198e-01 -3.455902672694e-02 9.992790527198e-01 -3.455902672694e-02 -7.887844841399e-04 -1.598973707798e-02
4.350000000000e+09 -7.942822197804e-04 -1.604464966101e-02 9.992746083767e-01 -3.467855300177e-02 9.992746083767e-01 -3.467855300177e-02 -7.942822197804e-04 -1.604464966101e-02
4.365000000000e+09 -7.997944525620e-04 -1.609956244279e-02 9.992701380752e-01 -3.479809117910e-02 9.992701380752e-01 -3.479809117910e-02 -7.997944525620e-04 -1.609956244279e-02
4.380000000000e+09 -8.053212378662e-04 -1.615447553848e-02 9.992656418397e-01 -3.491764098761e-02 9.992656418397e-01 -3.491764098761e-02 -8.053212378662e-04 -1.615447553848e-02
4.395000000000e+09 -8.108626301353e-04 -1.620938905747e-02 9.992611196995e-01 -3.503720215788e-02 9.992611196995e-01 -3.503720215788e-02 -8.108626301353e-04 -1.620938905747e-02
4.410000000000e+09 -8.164186829305e-04 -1.626430310357e-02 9.992565716881e-01 -3.515677442237e-02 9.992565716881e-01 -3.515677442237e-02 -8.164186829305e-04 -1.626430310357e-02
4.425000000000e+09 -8.219894489889e-04 -1.631921777506e-02 9.992519978432e-01 -3.527635751538e-02 9.992519978432e-01 -3.527635751538e-02 -8.219894489889e-04 -1.631921777506e-02
4.440000000000e+09 -8.275749802838e-04 -1.637413316490e-02 9.992473982062e-01 -3.539595117297e-02 9.992473982062e-01 -3.539595117297e-02 -8.275749802838e-04 -1.637413316490e-02
4.455000000000e+09 -8.331753280784e-04 -1.642904936082e-02 9.992427728217e-01 -3.551555513300e-02 9.992427728217e-01 -3.551555513300e-02 -8.331753280784e-04 -1.642904936082e-02
4.470000000000e+09 -8.387905429863e-04 -1.648396644547e-02 9.992381217377e-01 -3.563516913501e-02 9.992381217377e-01 -3.563516913501e-02 -8.387905429863e-04 -1.648396644547e-02
4.485000000000e+09 -8.444206750231e-04 -1.653888449652e-02 9.992334450049e-01 -3.575479292024e-02 9.992334450049e-01 -3.575479292024e-02 -8.444206750231e-04 -1.653888449652e-02
4.500000000000e+09 -8.500657736642e-04 -1.659380358682e-02 9.992287426764e-01 -3.587442623159e-02 9.992287426764e-01 -3.587442623159e-02 -8.500657736642e-04 -1.659380358682e-02
4.515000000000e+09 -8.557258878986e-04 -1.664872378449e-02 9.992240148079e-01 -3.599406881360e-02 9.992240148079e-01 -3.599406881360e-02 -8.557258878986e-04 -1.664872378449e-02
4.530000000000e+09 -8.614010662813e-04 -1.670364515307e-02 9.992192614570e-01 -3.611372041240e-02 9.992192614570e-01 -3.611372041240e-02 -8.614010662813e-04 -1.670364515307e-02
4.545000000000e+09 -8.670913569849e-04 -1.675856775162e-02 9.992144826831e-01 -3.623338077574e-02 9.992144826831e-01 -3.623338077574e-02 -8.670913569849e-04 -1.675856775162e-02
4.560000000000e+09 -8.727968078520e-04 -1.681349163486e-02 9.992096785471e-01 -3.635304965291e-02 9.992096785471e-01 -3.635304965291e-02 -8.727968078520e-04 -1.681349163486e-02
4.575000000000e+09 -8.785174664427e-04 -1.686841685325e-02 9.992048491115e-01 -3.647272679477e-02 9.992048491115e-01 -3.647272679477e-02 -8.785174664427e-04 -1.686841685325e-02
4.590000000000e+09 -8.842533800860e-04 -1.692334345315e-02 9.991999944398e-01 -3.659241195372e-02 9.991999944398e-01 -3.659241195372e-02 -8.842533800860e-04 -1.692334345315e-02
4.605000000000e+09 -8.900045959228e-04 -1.697827147693e-02 9.991951145965e-01 -3.671210488368e-02 9.991951145965e-01 -3.671210488368e-02 -8.900045959228e-04 -1.697827147693e-02
4.620000000000e+09 -8.957711609560e-04 -1.703320096302e-02 9.991902096471e-01 -3.683180534012e-02 9.991902096471e-01 -3.683180534012e-02 -8.957711609560e-04 -1.703320096302e-02
4.635000000000e+09 -9.015531220898e-04 -1.708813194612e-02 9.991852796574e-01 -3.695151308000e-02 9.991852796574e-01 -3.695151308000e-02 -9.015531220898e-04 -1.708813194612e-02
4.650000000000e+09 -9.073505261783e-04 -1.714306445721e-02 9.991803246939e-01 -3.707122786180e-02 9.991803246939e-01 -3.707122786180e-02 -9.073505261783e-04 -1.714306445721e-02
4.665000000000e+09 -9.131634200622e-04 -1.719799852374e-02 9.991753448233e-01 -3.719094944550e-02 9.991753448233e-01 -3.719094944550e-02 -9.131634200622e-04 -1.719799852374e-02
